vdm	V(n001)	I(V1)	I(V3)
-2.000000000000000e-01	2.543152e+00	6.154075e-11	3.337419e-08
-1.996000000000000e-01	2.543151e+00	6.229964e-11	3.337343e-08
-1.992000000000000e-01	2.543150e+00	6.306917e-11	3.337266e-08
-1.988000000000000e-01	2.543149e+00	6.384950e-11	3.337188e-08
-1.984000000000000e-01	2.543149e+00	6.464079e-11	3.337109e-08
-1.980000000000000e-01	2.543148e+00	6.544316e-11	3.337029e-08
-1.975999999999999e-01	2.543147e+00	6.625680e-11	3.336948e-08
-1.971999999999999e-01	2.543146e+00	6.708185e-11	3.336866e-08
-1.967999999999999e-01	2.543145e+00	6.791847e-11	3.336782e-08
-1.963999999999999e-01	2.543144e+00	6.876681e-11	3.336697e-08
-1.959999999999999e-01	2.543143e+00	6.962706e-11	3.336611e-08
-1.955999999999999e-01	2.543142e+00	7.049936e-11	3.336524e-08
-1.951999999999999e-01	2.543141e+00	7.138389e-11	3.336436e-08
-1.947999999999999e-01	2.543139e+00	7.228082e-11	3.336347e-08
-1.943999999999999e-01	2.543139e+00	7.319031e-11	3.336256e-08
-1.939999999999998e-01	2.543137e+00	7.411256e-11	3.336164e-08
-1.935999999999998e-01	2.543136e+00	7.504772e-11	3.336070e-08
-1.931999999999998e-01	2.543135e+00	7.599599e-11	3.335976e-08
-1.927999999999998e-01	2.543134e+00	7.695754e-11	3.335879e-08
-1.923999999999998e-01	2.543133e+00	7.793256e-11	3.335782e-08
-1.919999999999998e-01	2.543132e+00	7.892122e-11	3.335684e-08
-1.915999999999998e-01	2.543131e+00	7.992373e-11	3.335584e-08
-1.911999999999998e-01	2.543129e+00	8.094029e-11	3.335482e-08
-1.907999999999997e-01	2.543128e+00	8.197107e-11	3.335379e-08
-1.903999999999997e-01	2.543127e+00	8.301627e-11	3.335275e-08
-1.899999999999997e-01	2.543126e+00	8.407611e-11	3.335169e-08
-1.895999999999997e-01	2.543124e+00	8.515078e-11	3.335062e-08
-1.891999999999997e-01	2.543123e+00	8.624048e-11	3.334953e-08
-1.887999999999997e-01	2.543122e+00	8.734542e-11	3.334842e-08
-1.883999999999997e-01	2.543121e+00	8.846582e-11	3.334731e-08
-1.879999999999997e-01	2.543119e+00	8.960190e-11	3.334617e-08
-1.875999999999997e-01	2.543118e+00	9.075385e-11	3.334502e-08
-1.871999999999996e-01	2.543117e+00	9.192191e-11	3.334386e-08
-1.867999999999996e-01	2.543115e+00	9.310630e-11	3.334267e-08
-1.863999999999996e-01	2.543114e+00	9.430725e-11	3.334148e-08
-1.859999999999996e-01	2.543112e+00	9.552497e-11	3.334026e-08
-1.855999999999996e-01	2.543111e+00	9.675971e-11	3.333903e-08
-1.851999999999996e-01	2.543109e+00	9.801170e-11	3.333778e-08
-1.847999999999996e-01	2.543108e+00	9.928118e-11	3.333651e-08
-1.843999999999996e-01	2.543107e+00	1.005684e-10	3.333522e-08
-1.839999999999996e-01	2.543105e+00	1.018736e-10	3.333392e-08
-1.835999999999995e-01	2.543103e+00	1.031970e-10	3.333260e-08
-1.831999999999995e-01	2.543102e+00	1.045388e-10	3.333126e-08
-1.827999999999995e-01	2.543100e+00	1.058994e-10	3.332990e-08
-1.823999999999995e-01	2.543099e+00	1.072790e-10	3.332852e-08
-1.819999999999995e-01	2.543097e+00	1.086779e-10	3.332713e-08
-1.815999999999995e-01	2.543095e+00	1.100962e-10	3.332571e-08
-1.811999999999995e-01	2.543094e+00	1.115343e-10	3.332428e-08
-1.807999999999995e-01	2.543092e+00	1.129925e-10	3.332282e-08
-1.803999999999994e-01	2.543090e+00	1.144710e-10	3.332134e-08
-1.799999999999994e-01	2.543088e+00	1.159701e-10	3.331985e-08
-1.795999999999994e-01	2.543087e+00	1.174901e-10	3.331833e-08
-1.791999999999994e-01	2.543085e+00	1.190313e-10	3.331679e-08
-1.787999999999994e-01	2.543083e+00	1.205940e-10	3.331523e-08
-1.783999999999994e-01	2.543081e+00	1.221784e-10	3.331365e-08
-1.779999999999994e-01	2.543079e+00	1.237848e-10	3.331204e-08
-1.775999999999994e-01	2.543077e+00	1.254137e-10	3.331042e-08
-1.771999999999994e-01	2.543076e+00	1.270652e-10	3.330877e-08
-1.767999999999993e-01	2.543073e+00	1.287396e-10	3.330710e-08
-1.763999999999993e-01	2.543072e+00	1.304374e-10	3.330540e-08
-1.759999999999993e-01	2.543070e+00	1.321588e-10	3.330369e-08
-1.755999999999993e-01	2.543067e+00	1.339041e-10	3.330194e-08
-1.751999999999993e-01	2.543065e+00	1.356737e-10	3.330018e-08
-1.747999999999993e-01	2.543063e+00	1.374679e-10	3.329838e-08
-1.743999999999993e-01	2.543061e+00	1.392870e-10	3.329657e-08
-1.739999999999993e-01	2.543059e+00	1.411314e-10	3.329473e-08
-1.735999999999993e-01	2.543057e+00	1.430014e-10	3.329286e-08
-1.731999999999992e-01	2.543055e+00	1.448974e-10	3.329097e-08
-1.727999999999992e-01	2.543052e+00	1.468197e-10	3.328905e-08
-1.723999999999992e-01	2.543050e+00	1.487687e-10	3.328710e-08
-1.719999999999992e-01	2.543048e+00	1.507447e-10	3.328513e-08
-1.715999999999992e-01	2.543045e+00	1.527481e-10	3.328313e-08
-1.711999999999992e-01	2.543043e+00	1.547793e-10	3.328110e-08
-1.707999999999992e-01	2.543041e+00	1.568387e-10	3.327904e-08
-1.703999999999992e-01	2.543038e+00	1.589266e-10	3.327696e-08
-1.699999999999992e-01	2.543036e+00	1.610435e-10	3.327485e-08
-1.695999999999991e-01	2.543033e+00	1.631896e-10	3.327271e-08
-1.691999999999991e-01	2.543031e+00	1.653655e-10	3.327053e-08
-1.687999999999991e-01	2.543028e+00	1.675716e-10	3.326833e-08
-1.683999999999991e-01	2.543025e+00	1.698081e-10	3.326610e-08
-1.679999999999991e-01	2.543023e+00	1.720756e-10	3.326383e-08
-1.675999999999991e-01	2.543020e+00	1.743745e-10	3.326154e-08
-1.671999999999991e-01	2.543017e+00	1.767051e-10	3.325921e-08
-1.667999999999991e-01	2.543015e+00	1.790680e-10	3.325685e-08
-1.663999999999990e-01	2.543012e+00	1.814635e-10	3.325446e-08
-1.659999999999990e-01	2.543009e+00	1.838921e-10	3.325204e-08
-1.655999999999990e-01	2.543006e+00	1.863543e-10	3.324958e-08
-1.651999999999990e-01	2.543003e+00	1.888504e-10	3.324708e-08
-1.647999999999990e-01	2.543000e+00	1.913810e-10	3.324456e-08
-1.643999999999990e-01	2.542997e+00	1.939466e-10	3.324200e-08
-1.639999999999990e-01	2.542994e+00	1.965475e-10	3.323940e-08
-1.635999999999990e-01	2.542991e+00	1.991842e-10	3.323677e-08
-1.631999999999990e-01	2.542988e+00	2.018573e-10	3.323410e-08
-1.627999999999989e-01	2.542985e+00	2.045673e-10	3.323139e-08
-1.623999999999989e-01	2.542981e+00	2.073145e-10	3.322865e-08
-1.619999999999989e-01	2.542978e+00	2.100996e-10	3.322587e-08
-1.615999999999989e-01	2.542975e+00	2.129231e-10	3.322305e-08
-1.611999999999989e-01	2.542972e+00	2.157853e-10	3.322019e-08
-1.607999999999989e-01	2.542968e+00	2.186869e-10	3.321730e-08
-1.603999999999989e-01	2.542965e+00	2.216285e-10	3.321436e-08
-1.599999999999989e-01	2.542961e+00	2.246104e-10	3.321138e-08
-1.595999999999989e-01	2.542958e+00	2.276333e-10	3.320837e-08
-1.591999999999988e-01	2.542954e+00	2.306977e-10	3.320531e-08
-1.587999999999988e-01	2.542950e+00	2.338042e-10	3.320221e-08
-1.583999999999988e-01	2.542947e+00	2.369533e-10	3.319906e-08
-1.579999999999988e-01	2.542943e+00	2.401456e-10	3.319587e-08
-1.575999999999988e-01	2.542939e+00	2.433816e-10	3.319264e-08
-1.571999999999988e-01	2.542935e+00	2.466620e-10	3.318937e-08
-1.567999999999988e-01	2.542931e+00	2.499873e-10	3.318605e-08
-1.563999999999988e-01	2.542928e+00	2.533581e-10	3.318268e-08
-1.559999999999988e-01	2.542923e+00	2.567751e-10	3.317927e-08
-1.555999999999987e-01	2.542919e+00	2.602388e-10	3.317581e-08
-1.551999999999987e-01	2.542915e+00	2.637499e-10	3.317231e-08
-1.547999999999987e-01	2.542911e+00	2.673089e-10	3.316875e-08
-1.543999999999987e-01	2.542907e+00	2.709166e-10	3.316515e-08
-1.539999999999987e-01	2.542902e+00	2.745735e-10	3.316150e-08
-1.535999999999987e-01	2.542898e+00	2.782803e-10	3.315780e-08
-1.531999999999987e-01	2.542894e+00	2.820377e-10	3.315405e-08
-1.527999999999987e-01	2.542889e+00	2.858463e-10	3.315025e-08
-1.523999999999986e-01	2.542885e+00	2.897067e-10	3.314639e-08
-1.519999999999986e-01	2.542880e+00	2.936198e-10	3.314248e-08
-1.515999999999986e-01	2.542876e+00	2.975861e-10	3.313853e-08
-1.511999999999986e-01	2.542871e+00	3.016064e-10	3.313451e-08
-1.507999999999986e-01	2.542866e+00	3.056813e-10	3.313044e-08
-1.503999999999986e-01	2.542861e+00	3.098117e-10	3.312632e-08
-1.499999999999986e-01	2.542856e+00	3.139981e-10	3.312214e-08
-1.495999999999986e-01	2.542851e+00	3.182413e-10	3.311790e-08
-1.491999999999986e-01	2.542846e+00	3.225422e-10	3.311361e-08
-1.487999999999985e-01	2.542841e+00	3.269013e-10	3.310926e-08
-1.483999999999985e-01	2.542836e+00	3.313195e-10	3.310485e-08
-1.479999999999985e-01	2.542831e+00	3.357976e-10	3.310038e-08
-1.475999999999985e-01	2.542825e+00	3.403362e-10	3.309584e-08
-1.471999999999985e-01	2.542820e+00	3.449363e-10	3.309125e-08
-1.467999999999985e-01	2.542814e+00	3.495985e-10	3.308660e-08
-1.463999999999985e-01	2.542809e+00	3.543238e-10	3.308188e-08
-1.459999999999985e-01	2.542803e+00	3.591128e-10	3.307710e-08
-1.455999999999985e-01	2.542798e+00	3.639665e-10	3.307225e-08
-1.451999999999984e-01	2.542792e+00	3.688856e-10	3.306734e-08
-1.447999999999984e-01	2.542786e+00	3.738710e-10	3.306237e-08
-1.443999999999984e-01	2.542780e+00	3.789236e-10	3.305732e-08
-1.439999999999984e-01	2.542774e+00	3.840441e-10	3.305221e-08
-1.435999999999984e-01	2.542768e+00	3.892335e-10	3.304703e-08
-1.431999999999984e-01	2.542762e+00	3.944927e-10	3.304178e-08
-1.427999999999984e-01	2.542755e+00	3.998225e-10	3.303646e-08
-1.423999999999984e-01	2.542749e+00	4.052238e-10	3.303106e-08
-1.419999999999983e-01	2.542742e+00	4.106976e-10	3.302560e-08
-1.415999999999983e-01	2.542736e+00	4.162447e-10	3.302006e-08
-1.411999999999983e-01	2.542729e+00	4.218662e-10	3.301445e-08
-1.407999999999983e-01	2.542723e+00	4.275628e-10	3.300876e-08
-1.403999999999983e-01	2.542716e+00	4.333356e-10	3.300300e-08
-1.399999999999983e-01	2.542709e+00	4.391856e-10	3.299716e-08
-1.395999999999983e-01	2.542702e+00	4.451136e-10	3.299124e-08
-1.391999999999983e-01	2.542695e+00	4.511208e-10	3.298524e-08
-1.387999999999983e-01	2.542688e+00	4.572080e-10	3.297917e-08
-1.383999999999982e-01	2.542681e+00	4.633763e-10	3.297301e-08
-1.379999999999982e-01	2.542673e+00	4.696267e-10	3.296677e-08
-1.375999999999982e-01	2.542666e+00	4.759602e-10	3.296044e-08
-1.371999999999982e-01	2.542658e+00	4.823779e-10	3.295403e-08
-1.367999999999982e-01	2.542650e+00	4.888807e-10	3.294754e-08
-1.363999999999982e-01	2.542643e+00	4.954698e-10	3.294096e-08
-1.359999999999982e-01	2.542635e+00	5.021463e-10	3.293430e-08
-1.355999999999982e-01	2.542627e+00	5.089111e-10	3.292755e-08
-1.351999999999982e-01	2.542619e+00	5.157654e-10	3.292070e-08
-1.347999999999981e-01	2.542610e+00	5.227104e-10	3.291377e-08
-1.343999999999981e-01	2.542602e+00	5.297470e-10	3.290674e-08
-1.339999999999981e-01	2.542594e+00	5.368764e-10	3.289963e-08
-1.335999999999981e-01	2.542585e+00	5.440999e-10	3.289242e-08
-1.331999999999981e-01	2.542577e+00	5.514184e-10	3.288511e-08
-1.327999999999981e-01	2.542568e+00	5.588333e-10	3.287770e-08
-1.323999999999981e-01	2.542559e+00	5.663455e-10	3.287020e-08
-1.319999999999981e-01	2.542550e+00	5.739564e-10	3.286261e-08
-1.315999999999981e-01	2.542541e+00	5.816671e-10	3.285491e-08
-1.311999999999980e-01	2.542531e+00	5.894788e-10	3.284711e-08
-1.307999999999980e-01	2.542522e+00	5.973928e-10	3.283921e-08
-1.303999999999980e-01	2.542513e+00	6.054103e-10	3.283121e-08
-1.299999999999980e-01	2.542503e+00	6.135324e-10	3.282310e-08
-1.295999999999980e-01	2.542493e+00	6.217606e-10	3.281488e-08
-1.291999999999980e-01	2.542484e+00	6.300960e-10	3.280656e-08
-1.287999999999980e-01	2.542474e+00	6.385399e-10	3.279813e-08
-1.283999999999980e-01	2.542463e+00	6.470937e-10	3.278959e-08
-1.279999999999979e-01	2.542453e+00	6.557585e-10	3.278094e-08
-1.275999999999979e-01	2.542443e+00	6.645358e-10	3.277218e-08
-1.271999999999979e-01	2.542432e+00	6.734268e-10	3.276330e-08
-1.267999999999979e-01	2.542422e+00	6.824329e-10	3.275431e-08
-1.263999999999979e-01	2.542411e+00	6.915554e-10	3.274520e-08
-1.259999999999979e-01	2.542400e+00	7.007958e-10	3.273598e-08
-1.255999999999979e-01	2.542389e+00	7.101554e-10	3.272663e-08
-1.251999999999979e-01	2.542377e+00	7.196355e-10	3.271717e-08
-1.247999999999979e-01	2.542366e+00	7.292376e-10	3.270758e-08
-1.243999999999979e-01	2.542355e+00	7.389631e-10	3.269787e-08
-1.239999999999979e-01	2.542343e+00	7.488134e-10	3.268804e-08
-1.235999999999979e-01	2.542331e+00	7.587900e-10	3.267808e-08
-1.231999999999979e-01	2.542319e+00	7.688943e-10	3.266799e-08
-1.227999999999979e-01	2.542307e+00	7.791277e-10	3.265777e-08
-1.223999999999979e-01	2.542295e+00	7.894918e-10	3.264742e-08
-1.219999999999979e-01	2.542282e+00	7.999880e-10	3.263695e-08
-1.215999999999979e-01	2.542269e+00	8.106179e-10	3.262634e-08
-1.211999999999979e-01	2.542257e+00	8.213829e-10	3.261559e-08
-1.207999999999979e-01	2.542244e+00	8.322846e-10	3.260470e-08
-1.203999999999979e-01	2.542231e+00	8.433245e-10	3.259368e-08
-1.199999999999979e-01	2.542217e+00	8.545041e-10	3.258252e-08
-1.195999999999979e-01	2.542204e+00	8.658251e-10	3.257122e-08
-1.191999999999979e-01	2.542190e+00	8.772889e-10	3.255977e-08
-1.187999999999979e-01	2.542176e+00	8.888973e-10	3.254818e-08
-1.183999999999979e-01	2.542162e+00	9.006517e-10	3.253645e-08
-1.179999999999979e-01	2.542148e+00	9.125539e-10	3.252457e-08
-1.175999999999979e-01	2.542134e+00	9.246053e-10	3.251253e-08
-1.171999999999979e-01	2.542119e+00	9.368077e-10	3.250035e-08
-1.167999999999979e-01	2.542104e+00	9.491627e-10	3.248802e-08
-1.163999999999979e-01	2.542090e+00	9.616720e-10	3.247553e-08
-1.159999999999979e-01	2.542074e+00	9.743372e-10	3.246289e-08
-1.155999999999979e-01	2.542059e+00	9.871600e-10	3.245009e-08
-1.151999999999979e-01	2.542044e+00	1.000142e-09	3.243712e-08
-1.147999999999979e-01	2.542028e+00	1.013285e-09	3.242400e-08
-1.143999999999979e-01	2.542012e+00	1.026591e-09	3.241072e-08
-1.139999999999979e-01	2.541996e+00	1.040061e-09	3.239727e-08
-1.135999999999979e-01	2.541980e+00	1.053698e-09	3.238366e-08
-1.131999999999979e-01	2.541963e+00	1.067503e-09	3.236988e-08
-1.127999999999979e-01	2.541947e+00	1.081477e-09	3.235592e-08
-1.123999999999979e-01	2.541930e+00	1.095622e-09	3.234180e-08
-1.119999999999979e-01	2.541913e+00	1.109941e-09	3.232751e-08
-1.115999999999980e-01	2.541895e+00	1.124436e-09	3.231304e-08
-1.111999999999980e-01	2.541878e+00	1.139106e-09	3.229839e-08
-1.107999999999980e-01	2.541860e+00	1.153956e-09	3.228356e-08
-1.103999999999980e-01	2.541842e+00	1.168986e-09	3.226856e-08
-1.099999999999980e-01	2.541824e+00	1.184199e-09	3.225337e-08
-1.095999999999980e-01	2.541805e+00	1.199596e-09	3.223800e-08
-1.091999999999980e-01	2.541786e+00	1.215179e-09	3.222244e-08
-1.087999999999980e-01	2.541768e+00	1.230949e-09	3.220670e-08
-1.083999999999980e-01	2.541748e+00	1.246910e-09	3.219077e-08
-1.079999999999980e-01	2.541729e+00	1.263063e-09	3.217464e-08
-1.075999999999980e-01	2.541709e+00	1.279409e-09	3.215832e-08
-1.071999999999980e-01	2.541689e+00	1.295950e-09	3.214181e-08
-1.067999999999980e-01	2.541669e+00	1.312689e-09	3.212509e-08
-1.063999999999980e-01	2.541649e+00	1.329627e-09	3.210819e-08
-1.059999999999980e-01	2.541628e+00	1.346767e-09	3.209107e-08
-1.055999999999980e-01	2.541607e+00	1.364110e-09	3.207376e-08
-1.051999999999980e-01	2.541586e+00	1.381658e-09	3.205624e-08
-1.047999999999980e-01	2.541565e+00	1.399413e-09	3.203851e-08
-1.043999999999980e-01	2.541543e+00	1.417377e-09	3.202058e-08
-1.039999999999980e-01	2.541521e+00	1.435553e-09	3.200244e-08
-1.035999999999980e-01	2.541499e+00	1.453941e-09	3.198408e-08
-1.031999999999980e-01	2.541477e+00	1.472545e-09	3.196551e-08
-1.027999999999980e-01	2.541454e+00	1.491366e-09	3.194672e-08
-1.023999999999980e-01	2.541431e+00	1.510405e-09	3.192771e-08
-1.019999999999980e-01	2.541408e+00	1.529666e-09	3.190848e-08
-1.015999999999980e-01	2.541384e+00	1.549150e-09	3.188903e-08
-1.011999999999980e-01	2.541360e+00	1.568859e-09	3.186935e-08
-1.007999999999980e-01	2.541336e+00	1.588795e-09	3.184945e-08
-1.003999999999980e-01	2.541312e+00	1.608960e-09	3.182932e-08
-9.999999999999802e-02	2.541287e+00	1.629356e-09	3.180896e-08
-9.959999999999802e-02	2.541262e+00	1.649986e-09	3.178836e-08
-9.919999999999803e-02	2.541237e+00	1.670851e-09	3.176753e-08
-9.879999999999803e-02	2.541211e+00	1.691953e-09	3.174647e-08
-9.839999999999803e-02	2.541185e+00	1.713295e-09	3.172516e-08
-9.799999999999803e-02	2.541159e+00	1.734878e-09	3.170361e-08
-9.759999999999804e-02	2.541133e+00	1.756704e-09	3.168182e-08
-9.719999999999804e-02	2.541106e+00	1.778776e-09	3.165979e-08
-9.679999999999804e-02	2.541079e+00	1.801096e-09	3.163751e-08
-9.639999999999804e-02	2.541051e+00	1.823665e-09	3.161497e-08
-9.599999999999805e-02	2.541023e+00	1.846487e-09	3.159219e-08
-9.559999999999805e-02	2.540995e+00	1.869562e-09	3.156916e-08
-9.519999999999805e-02	2.540967e+00	1.892892e-09	3.154587e-08
-9.479999999999805e-02	2.540938e+00	1.916481e-09	3.152232e-08
-9.439999999999805e-02	2.540909e+00	1.940330e-09	3.149851e-08
-9.399999999999806e-02	2.540880e+00	1.964441e-09	3.147444e-08
-9.359999999999806e-02	2.540850e+00	1.988816e-09	3.145010e-08
-9.319999999999806e-02	2.540820e+00	2.013457e-09	3.142550e-08
-9.279999999999806e-02	2.540789e+00	2.038367e-09	3.140063e-08
-9.239999999999807e-02	2.540759e+00	2.063547e-09	3.137550e-08
-9.199999999999807e-02	2.540727e+00	2.089000e-09	3.135009e-08
-9.159999999999807e-02	2.540696e+00	2.114726e-09	3.132441e-08
-9.119999999999807e-02	2.540664e+00	2.140730e-09	3.129845e-08
-9.079999999999808e-02	2.540632e+00	2.167012e-09	3.127221e-08
-9.039999999999808e-02	2.540599e+00	2.193575e-09	3.124569e-08
-8.999999999999808e-02	2.540566e+00	2.220420e-09	3.121889e-08
-8.959999999999808e-02	2.540533e+00	2.247550e-09	3.119181e-08
-8.919999999999809e-02	2.540499e+00	2.274967e-09	3.116444e-08
-8.879999999999809e-02	2.540465e+00	2.302673e-09	3.113678e-08
-8.839999999999809e-02	2.540431e+00	2.330670e-09	3.110883e-08
-8.799999999999809e-02	2.540396e+00	2.358959e-09	3.108059e-08
-8.759999999999810e-02	2.540360e+00	2.387543e-09	3.105205e-08
-8.719999999999810e-02	2.540325e+00	2.416424e-09	3.102322e-08
-8.679999999999810e-02	2.540289e+00	2.445604e-09	3.099409e-08
-8.639999999999810e-02	2.540252e+00	2.475085e-09	3.096466e-08
-8.599999999999811e-02	2.540216e+00	2.504869e-09	3.093493e-08
-8.559999999999811e-02	2.540179e+00	2.534957e-09	3.090489e-08
-8.519999999999811e-02	2.540141e+00	2.565352e-09	3.087455e-08
-8.479999999999811e-02	2.540103e+00	2.596055e-09	3.084390e-08
-8.439999999999812e-02	2.540064e+00	2.627070e-09	3.081294e-08
-8.399999999999812e-02	2.540025e+00	2.658396e-09	3.078167e-08
-8.359999999999812e-02	2.539986e+00	2.690038e-09	3.075008e-08
-8.319999999999812e-02	2.539946e+00	2.721995e-09	3.071818e-08
-8.279999999999813e-02	2.539906e+00	2.754271e-09	3.068596e-08
-8.239999999999813e-02	2.539866e+00	2.786866e-09	3.065342e-08
-8.199999999999813e-02	2.539825e+00	2.819784e-09	3.062055e-08
-8.159999999999813e-02	2.539783e+00	2.853025e-09	3.058737e-08
-8.119999999999813e-02	2.539741e+00	2.886592e-09	3.055386e-08
-8.079999999999814e-02	2.539699e+00	2.920487e-09	3.052003e-08
-8.039999999999814e-02	2.539656e+00	2.954710e-09	3.048586e-08
-7.999999999999814e-02	2.539613e+00	2.989265e-09	3.045137e-08
-7.959999999999814e-02	2.539569e+00	3.024152e-09	3.041654e-08
-7.919999999999815e-02	2.539525e+00	3.059373e-09	3.038138e-08
-7.879999999999815e-02	2.539480e+00	3.094931e-09	3.034588e-08
-7.839999999999815e-02	2.539435e+00	3.130827e-09	3.031005e-08
-7.799999999999815e-02	2.539390e+00	3.167062e-09	3.027388e-08
-7.759999999999816e-02	2.539344e+00	3.203638e-09	3.023737e-08
-7.719999999999816e-02	2.539297e+00	3.240558e-09	3.020051e-08
-7.679999999999816e-02	2.539251e+00	3.277821e-09	3.016331e-08
-7.639999999999816e-02	2.539203e+00	3.315431e-09	3.012577e-08
-7.599999999999817e-02	2.539155e+00	3.353389e-09	3.008788e-08
-7.559999999999817e-02	2.539107e+00	3.391695e-09	3.004964e-08
-7.519999999999817e-02	2.539058e+00	3.430353e-09	3.001105e-08
-7.479999999999817e-02	2.539008e+00	3.469362e-09	2.997211e-08
-7.439999999999818e-02	2.538959e+00	3.508726e-09	2.993281e-08
-7.399999999999818e-02	2.538908e+00	3.548444e-09	2.989317e-08
-7.359999999999818e-02	2.538857e+00	3.588519e-09	2.985316e-08
