vdm	V(n001)	I(V1)	I(V2)	I(V3)
-2.000000000000000e-01	3.543139e+00	2.366169e-09	0.000000e+00	2.167263e-07
-1.996000000000000e-01	3.543130e+00	2.396407e-09	0.000000e+00	2.166962e-07
-1.992000000000000e-01	3.543120e+00	2.427005e-09	0.000000e+00	2.166656e-07
-1.988000000000000e-01	3.543110e+00	2.457968e-09	0.000000e+00	2.166348e-07
-1.984000000000000e-01	3.543100e+00	2.489298e-09	0.000000e+00	2.166035e-07
-1.980000000000000e-01	3.543089e+00	2.521000e-09	0.000000e+00	2.165719e-07
-1.975999999999999e-01	3.543079e+00	2.553078e-09	0.000000e+00	2.165399e-07
-1.971999999999999e-01	3.543068e+00	2.585535e-09	0.000000e+00	2.165076e-07
-1.967999999999999e-01	3.543058e+00	2.618375e-09	0.000000e+00	2.164748e-07
-1.963999999999999e-01	3.543047e+00	2.651601e-09	0.000000e+00	2.164417e-07
-1.959999999999999e-01	3.543036e+00	2.685219e-09	0.000000e+00	2.164082e-07
-1.955999999999999e-01	3.543025e+00	2.719230e-09	0.000000e+00	2.163742e-07
-1.951999999999999e-01	3.543014e+00	2.753640e-09	0.000000e+00	2.163399e-07
-1.947999999999999e-01	3.543003e+00	2.788453e-09	0.000000e+00	2.163052e-07
-1.943999999999999e-01	3.542991e+00	2.823671e-09	0.000000e+00	2.162701e-07
-1.939999999999998e-01	3.542980e+00	2.859300e-09	0.000000e+00	2.162346e-07
-1.935999999999998e-01	3.542968e+00	2.895342e-09	0.000000e+00	2.161986e-07
-1.931999999999998e-01	3.542956e+00	2.931803e-09	0.000000e+00	2.161623e-07
-1.927999999999998e-01	3.542944e+00	2.968685e-09	0.000000e+00	2.161255e-07
-1.923999999999998e-01	3.542932e+00	3.005994e-09	0.000000e+00	2.160883e-07
-1.919999999999998e-01	3.542920e+00	3.043732e-09	0.000000e+00	2.160507e-07
-1.915999999999998e-01	3.542908e+00	3.081905e-09	0.000000e+00	2.160126e-07
-1.911999999999998e-01	3.542895e+00	3.120515e-09	0.000000e+00	2.159741e-07
-1.907999999999997e-01	3.542883e+00	3.159568e-09	0.000000e+00	2.159351e-07
-1.903999999999997e-01	3.542870e+00	3.199068e-09	0.000000e+00	2.158958e-07
-1.899999999999997e-01	3.542857e+00	3.239017e-09	0.000000e+00	2.158559e-07
-1.895999999999997e-01	3.542844e+00	3.279422e-09	0.000000e+00	2.158156e-07
-1.891999999999997e-01	3.542830e+00	3.320285e-09	0.000000e+00	2.157749e-07
-1.887999999999997e-01	3.542817e+00	3.361611e-09	0.000000e+00	2.157337e-07
-1.883999999999997e-01	3.542804e+00	3.403404e-09	0.000000e+00	2.156920e-07
-1.879999999999997e-01	3.542790e+00	3.445669e-09	0.000000e+00	2.156498e-07
-1.875999999999997e-01	3.542776e+00	3.488409e-09	0.000000e+00	2.156072e-07
-1.871999999999996e-01	3.542762e+00	3.531629e-09	0.000000e+00	2.155641e-07
-1.867999999999996e-01	3.542748e+00	3.575334e-09	0.000000e+00	2.155205e-07
-1.863999999999996e-01	3.542733e+00	3.619526e-09	0.000000e+00	2.154765e-07
-1.859999999999996e-01	3.542719e+00	3.664211e-09	0.000000e+00	2.154319e-07
-1.855999999999996e-01	3.542704e+00	3.709393e-09	0.000000e+00	2.153869e-07
-1.851999999999996e-01	3.542690e+00	3.755077e-09	0.000000e+00	2.153413e-07
-1.847999999999996e-01	3.542675e+00	3.801266e-09	0.000000e+00	2.152952e-07
-1.843999999999996e-01	3.542659e+00	3.847965e-09	0.000000e+00	2.152487e-07
-1.839999999999996e-01	3.542644e+00	3.895178e-09	0.000000e+00	2.152016e-07
-1.835999999999995e-01	3.542629e+00	3.942910e-09	0.000000e+00	2.151540e-07
-1.831999999999995e-01	3.542613e+00	3.991166e-09	0.000000e+00	2.151059e-07
-1.827999999999995e-01	3.542597e+00	4.039948e-09	0.000000e+00	2.150572e-07
-1.823999999999995e-01	3.542581e+00	4.089262e-09	0.000000e+00	2.150081e-07
-1.819999999999995e-01	3.542565e+00	4.139113e-09	0.000000e+00	2.149584e-07
-1.815999999999995e-01	3.542548e+00	4.189504e-09	0.000000e+00	2.149081e-07
-1.811999999999995e-01	3.542532e+00	4.240440e-09	0.000000e+00	2.148573e-07
-1.807999999999995e-01	3.542515e+00	4.291926e-09	0.000000e+00	2.148060e-07
-1.803999999999994e-01	3.542498e+00	4.343967e-09	0.000000e+00	2.147541e-07
-1.799999999999994e-01	3.542481e+00	4.396565e-09	0.000000e+00	2.147016e-07
-1.795999999999994e-01	3.542464e+00	4.449726e-09	0.000000e+00	2.146486e-07
-1.791999999999994e-01	3.542446e+00	4.503455e-09	0.000000e+00	2.145950e-07
-1.787999999999994e-01	3.542429e+00	4.557756e-09	0.000000e+00	2.145409e-07
-1.783999999999994e-01	3.542411e+00	4.612632e-09	0.000000e+00	2.144862e-07
-1.779999999999994e-01	3.542393e+00	4.668090e-09	0.000000e+00	2.144309e-07
-1.775999999999994e-01	3.542375e+00	4.724133e-09	0.000000e+00	2.143750e-07
-1.771999999999994e-01	3.542356e+00	4.780766e-09	0.000000e+00	2.143185e-07
-1.767999999999993e-01	3.542337e+00	4.837993e-09	0.000000e+00	2.142615e-07
-1.763999999999993e-01	3.542319e+00	4.895819e-09	0.000000e+00	2.142038e-07
-1.759999999999993e-01	3.542300e+00	4.954248e-09	0.000000e+00	2.141455e-07
-1.755999999999993e-01	3.542280e+00	5.013285e-09	0.000000e+00	2.140867e-07
-1.751999999999993e-01	3.542261e+00	5.072935e-09	0.000000e+00	2.140272e-07
-1.747999999999993e-01	3.542241e+00	5.133201e-09	0.000000e+00	2.139671e-07
-1.743999999999993e-01	3.542222e+00	5.194088e-09	0.000000e+00	2.139064e-07
-1.739999999999993e-01	3.542202e+00	5.255602e-09	0.000000e+00	2.138450e-07
-1.735999999999993e-01	3.542181e+00	5.317745e-09	0.000000e+00	2.137831e-07
-1.731999999999992e-01	3.542161e+00	5.380524e-09	0.000000e+00	2.137205e-07
-1.727999999999992e-01	3.542140e+00	5.443942e-09	0.000000e+00	2.136572e-07
-1.723999999999992e-01	3.542119e+00	5.508004e-09	0.000000e+00	2.135933e-07
-1.719999999999992e-01	3.542098e+00	5.572714e-09	0.000000e+00	2.135288e-07
-1.715999999999992e-01	3.542077e+00	5.638077e-09	0.000000e+00	2.134636e-07
-1.711999999999992e-01	3.542055e+00	5.704097e-09	0.000000e+00	2.133978e-07
-1.707999999999992e-01	3.542033e+00	5.770779e-09	0.000000e+00	2.133313e-07
-1.703999999999992e-01	3.542011e+00	5.838128e-09	0.000000e+00	2.132642e-07
-1.699999999999992e-01	3.541989e+00	5.906147e-09	0.000000e+00	2.131963e-07
-1.695999999999991e-01	3.541967e+00	5.974841e-09	0.000000e+00	2.131278e-07
-1.691999999999991e-01	3.541944e+00	6.044215e-09	0.000000e+00	2.130587e-07
-1.687999999999991e-01	3.541921e+00	6.114273e-09	0.000000e+00	2.129888e-07
-1.683999999999991e-01	3.541898e+00	6.185020e-09	0.000000e+00	2.129183e-07
-1.679999999999991e-01	3.541875e+00	6.256459e-09	0.000000e+00	2.128470e-07
-1.675999999999991e-01	3.541851e+00	6.328596e-09	0.000000e+00	2.127751e-07
-1.671999999999991e-01	3.541827e+00	6.401435e-09	0.000000e+00	2.127025e-07
-1.667999999999991e-01	3.541803e+00	6.474980e-09	0.000000e+00	2.126291e-07
-1.663999999999990e-01	3.541779e+00	6.549235e-09	0.000000e+00	2.125551e-07
-1.659999999999990e-01	3.541754e+00	6.624206e-09	0.000000e+00	2.124803e-07
-1.655999999999990e-01	3.541730e+00	6.699895e-09	0.000000e+00	2.124048e-07
-1.651999999999990e-01	3.541705e+00	6.776308e-09	0.000000e+00	2.123286e-07
-1.647999999999990e-01	3.541679e+00	6.853450e-09	0.000000e+00	2.122517e-07
-1.643999999999990e-01	3.541654e+00	6.931323e-09	0.000000e+00	2.121741e-07
-1.639999999999990e-01	3.541628e+00	7.009933e-09	0.000000e+00	2.120957e-07
-1.635999999999990e-01	3.541602e+00	7.089284e-09	0.000000e+00	2.120166e-07
-1.631999999999990e-01	3.541576e+00	7.169380e-09	0.000000e+00	2.119367e-07
-1.627999999999989e-01	3.541549e+00	7.250225e-09	0.000000e+00	2.118561e-07
-1.623999999999989e-01	3.541523e+00	7.331824e-09	0.000000e+00	2.117747e-07
-1.619999999999989e-01	3.541496e+00	7.414181e-09	0.000000e+00	2.116926e-07
-1.615999999999989e-01	3.541468e+00	7.497299e-09	0.000000e+00	2.116097e-07
-1.611999999999989e-01	3.541441e+00	7.581184e-09	0.000000e+00	2.115261e-07
-1.607999999999989e-01	3.541413e+00	7.665839e-09	0.000000e+00	2.114417e-07
-1.603999999999989e-01	3.541385e+00	7.751268e-09	0.000000e+00	2.113565e-07
-1.599999999999989e-01	3.541357e+00	7.837476e-09	0.000000e+00	2.112705e-07
-1.595999999999989e-01	3.541328e+00	7.924466e-09	0.000000e+00	2.111838e-07
-1.591999999999988e-01	3.541299e+00	8.012242e-09	0.000000e+00	2.110962e-07
-1.587999999999988e-01	3.541270e+00	8.100810e-09	0.000000e+00	2.110079e-07
-1.583999999999988e-01	3.541241e+00	8.190172e-09	0.000000e+00	2.109188e-07
-1.579999999999988e-01	3.541211e+00	8.280333e-09	0.000000e+00	2.108289e-07
-1.575999999999988e-01	3.541181e+00	8.371297e-09	0.000000e+00	2.107382e-07
-1.571999999999988e-01	3.541151e+00	8.463066e-09	0.000000e+00	2.106467e-07
-1.567999999999988e-01	3.541121e+00	8.555646e-09	0.000000e+00	2.105544e-07
-1.563999999999988e-01	3.541090e+00	8.649041e-09	0.000000e+00	2.104613e-07
-1.559999999999988e-01	3.541059e+00	8.743253e-09	0.000000e+00	2.103673e-07
-1.555999999999987e-01	3.541028e+00	8.838288e-09	0.000000e+00	2.102726e-07
-1.551999999999987e-01	3.540996e+00	8.934149e-09	0.000000e+00	2.101770e-07
-1.547999999999987e-01	3.540964e+00	9.030838e-09	0.000000e+00	2.100806e-07
-1.543999999999987e-01	3.540932e+00	9.128361e-09	0.000000e+00	2.099833e-07
-1.539999999999987e-01	3.540900e+00	9.226721e-09	0.000000e+00	2.098852e-07
-1.535999999999987e-01	3.540867e+00	9.325921e-09	0.000000e+00	2.097863e-07
-1.531999999999987e-01	3.540834e+00	9.425966e-09	0.000000e+00	2.096866e-07
-1.527999999999987e-01	3.540801e+00	9.526858e-09	0.000000e+00	2.095860e-07
-1.523999999999986e-01	3.540767e+00	9.628603e-09	0.000000e+00	2.094845e-07
-1.519999999999986e-01	3.540733e+00	9.731202e-09	0.000000e+00	2.093822e-07
-1.515999999999986e-01	3.540699e+00	9.834658e-09	0.000000e+00	2.092791e-07
-1.511999999999986e-01	3.540665e+00	9.938978e-09	0.000000e+00	2.091750e-07
-1.507999999999986e-01	3.540630e+00	1.004416e-08	0.000000e+00	2.090701e-07
-1.503999999999986e-01	3.540595e+00	1.015022e-08	0.000000e+00	2.089644e-07
-1.499999999999986e-01	3.540560e+00	1.025714e-08	0.000000e+00	2.088578e-07
-1.495999999999986e-01	3.540524e+00	1.036494e-08	0.000000e+00	2.087503e-07
-1.491999999999986e-01	3.540488e+00	1.047362e-08	0.000000e+00	2.086419e-07
-1.487999999999985e-01	3.540452e+00	1.058318e-08	0.000000e+00	2.085327e-07
-1.483999999999985e-01	3.540415e+00	1.069363e-08	0.000000e+00	2.084225e-07
-1.479999999999985e-01	3.540378e+00	1.080496e-08	0.000000e+00	2.083115e-07
-1.475999999999985e-01	3.540341e+00	1.091719e-08	0.000000e+00	2.081996e-07
-1.471999999999985e-01	3.540304e+00	1.103031e-08	0.000000e+00	2.080868e-07
-1.467999999999985e-01	3.540266e+00	1.114433e-08	0.000000e+00	2.079731e-07
-1.463999999999985e-01	3.540228e+00	1.125925e-08	0.000000e+00	2.078585e-07
-1.459999999999985e-01	3.540189e+00	1.137508e-08	0.000000e+00	2.077431e-07
-1.455999999999985e-01	3.540151e+00	1.149181e-08	0.000000e+00	2.076267e-07
-1.451999999999984e-01	3.540112e+00	1.160944e-08	0.000000e+00	2.075094e-07
-1.447999999999984e-01	3.540072e+00	1.172800e-08	0.000000e+00	2.073912e-07
-1.443999999999984e-01	3.540032e+00	1.184746e-08	0.000000e+00	2.072720e-07
-1.439999999999984e-01	3.539993e+00	1.196785e-08	0.000000e+00	2.071520e-07
-1.435999999999984e-01	3.539952e+00	1.208916e-08	0.000000e+00	2.070311e-07
-1.431999999999984e-01	3.539912e+00	1.221139e-08	0.000000e+00	2.069092e-07
-1.427999999999984e-01	3.539871e+00	1.233454e-08	0.000000e+00	2.067864e-07
-1.423999999999984e-01	3.539829e+00	1.245863e-08	0.000000e+00	2.066626e-07
-1.419999999999983e-01	3.539788e+00	1.258364e-08	0.000000e+00	2.065380e-07
-1.415999999999983e-01	3.539746e+00	1.270959e-08	0.000000e+00	2.064124e-07
-1.411999999999983e-01	3.539703e+00	1.283648e-08	0.000000e+00	2.062859e-07
-1.407999999999983e-01	3.539661e+00	1.296430e-08	0.000000e+00	2.061584e-07
-1.403999999999983e-01	3.539618e+00	1.309307e-08	0.000000e+00	2.060300e-07
-1.399999999999983e-01	3.539575e+00	1.322278e-08	0.000000e+00	2.059007e-07
-1.395999999999983e-01	3.539531e+00	1.335343e-08	0.000000e+00	2.057704e-07
-1.391999999999983e-01	3.539487e+00	1.348504e-08	0.000000e+00	2.056392e-07
-1.387999999999983e-01	3.539443e+00	1.361759e-08	0.000000e+00	2.055070e-07
-1.383999999999982e-01	3.539398e+00	1.375110e-08	0.000000e+00	2.053739e-07
-1.379999999999982e-01	3.539353e+00	1.388556e-08	0.000000e+00	2.052399e-07
-1.375999999999982e-01	3.539308e+00	1.402097e-08	0.000000e+00	2.051048e-07
-1.371999999999982e-01	3.539263e+00	1.415735e-08	0.000000e+00	2.049688e-07
-1.367999999999982e-01	3.539217e+00	1.429469e-08	0.000000e+00	2.048319e-07
-1.363999999999982e-01	3.539170e+00	1.443299e-08	0.000000e+00	2.046940e-07
-1.359999999999982e-01	3.539124e+00	1.457225e-08	0.000000e+00	2.045551e-07
-1.355999999999982e-01	3.539077e+00	1.471248e-08	0.000000e+00	2.044153e-07
-1.351999999999982e-01	3.539029e+00	1.485368e-08	0.000000e+00	2.042745e-07
-1.347999999999981e-01	3.538982e+00	1.499585e-08	0.000000e+00	2.041328e-07
-1.343999999999981e-01	3.538934e+00	1.513899e-08	0.000000e+00	2.039901e-07
-1.339999999999981e-01	3.538885e+00	1.528311e-08	0.000000e+00	2.038464e-07
-1.335999999999981e-01	3.538837e+00	1.542820e-08	0.000000e+00	2.037017e-07
-1.331999999999981e-01	3.538788e+00	1.557426e-08	0.000000e+00	2.035561e-07
-1.327999999999981e-01	3.538738e+00	1.572131e-08	0.000000e+00	2.034095e-07
-1.323999999999981e-01	3.538688e+00	1.586933e-08	0.000000e+00	2.032619e-07
-1.319999999999981e-01	3.538638e+00	1.601834e-08	0.000000e+00	2.031133e-07
-1.315999999999981e-01	3.538588e+00	1.616832e-08	0.000000e+00	2.029637e-07
-1.311999999999980e-01	3.538537e+00	1.631929e-08	0.000000e+00	2.028132e-07
-1.307999999999980e-01	3.538486e+00	1.647125e-08	0.000000e+00	2.026617e-07
-1.303999999999980e-01	3.538435e+00	1.662420e-08	0.000000e+00	2.025092e-07
-1.299999999999980e-01	3.538383e+00	1.677813e-08	0.000000e+00	2.023557e-07
-1.295999999999980e-01	3.538330e+00	1.693305e-08	0.000000e+00	2.022013e-07
-1.291999999999980e-01	3.538278e+00	1.708895e-08	0.000000e+00	2.020458e-07
-1.287999999999980e-01	3.538225e+00	1.724585e-08	0.000000e+00	2.018894e-07
-1.283999999999980e-01	3.538172e+00	1.740375e-08	0.000000e+00	2.017319e-07
-1.279999999999979e-01	3.538118e+00	1.756263e-08	0.000000e+00	2.015735e-07
-1.275999999999979e-01	3.538064e+00	1.772251e-08	0.000000e+00	2.014141e-07
-1.271999999999979e-01	3.538009e+00	1.788338e-08	0.000000e+00	2.012537e-07
-1.267999999999979e-01	3.537955e+00	1.804525e-08	0.000000e+00	2.010923e-07
-1.263999999999979e-01	3.537899e+00	1.820812e-08	0.000000e+00	2.009299e-07
-1.259999999999979e-01	3.537844e+00	1.837198e-08	0.000000e+00	2.007666e-07
-1.255999999999979e-01	3.537788e+00	1.853684e-08	0.000000e+00	2.006022e-07
-1.251999999999979e-01	3.537732e+00	1.870270e-08	0.000000e+00	2.004368e-07
-1.247999999999979e-01	3.537675e+00	1.886956e-08	0.000000e+00	2.002704e-07
-1.243999999999979e-01	3.537618e+00	1.903741e-08	0.000000e+00	2.001031e-07
-1.239999999999979e-01	3.537561e+00	1.920627e-08	0.000000e+00	1.999347e-07
-1.235999999999979e-01	3.537503e+00	1.937613e-08	0.000000e+00	1.997654e-07
-1.231999999999979e-01	3.537445e+00	1.954699e-08	0.000000e+00	1.995950e-07
-1.227999999999979e-01	3.537387e+00	1.971885e-08	0.000000e+00	1.994237e-07
-1.223999999999979e-01	3.537328e+00	1.989171e-08	0.000000e+00	1.992513e-07
-1.219999999999979e-01	3.537269e+00	2.006557e-08	0.000000e+00	1.990780e-07
-1.215999999999979e-01	3.537209e+00	2.024044e-08	0.000000e+00	1.989036e-07
-1.211999999999979e-01	3.537149e+00	2.041631e-08	0.000000e+00	1.987283e-07
-1.207999999999979e-01	3.537089e+00	2.059318e-08	0.000000e+00	1.985519e-07
-1.203999999999979e-01	3.537029e+00	2.077105e-08	0.000000e+00	1.983746e-07
-1.199999999999979e-01	3.536968e+00	2.094993e-08	0.000000e+00	1.981962e-07
-1.195999999999979e-01	3.536906e+00	2.112981e-08	0.000000e+00	1.980169e-07
-1.191999999999979e-01	3.536844e+00	2.131069e-08	0.000000e+00	1.978365e-07
-1.187999999999979e-01	3.536782e+00	2.149257e-08	0.000000e+00	1.976552e-07
-1.183999999999979e-01	3.536719e+00	2.167546e-08	0.000000e+00	1.974728e-07
-1.179999999999979e-01	3.536656e+00	2.185935e-08	0.000000e+00	1.972895e-07
-1.175999999999979e-01	3.536593e+00	2.204424e-08	0.000000e+00	1.971052e-07
-1.171999999999979e-01	3.536530e+00	2.223013e-08	0.000000e+00	1.969198e-07
-1.167999999999979e-01	3.536465e+00	2.241702e-08	0.000000e+00	1.967335e-07
-1.163999999999979e-01	3.536401e+00	2.260492e-08	0.000000e+00	1.965462e-07
-1.159999999999979e-01	3.536336e+00	2.279381e-08	0.000000e+00	1.963578e-07
-1.155999999999979e-01	3.536271e+00	2.298371e-08	0.000000e+00	1.961685e-07
-1.151999999999979e-01	3.536205e+00	2.317461e-08	0.000000e+00	1.959782e-07
-1.147999999999979e-01	3.536139e+00	2.336650e-08	0.000000e+00	1.957868e-07
-1.143999999999979e-01	3.536073e+00	2.355940e-08	0.000000e+00	1.955945e-07
-1.139999999999979e-01	3.536006e+00	2.375329e-08	0.000000e+00	1.954012e-07
-1.135999999999979e-01	3.535939e+00	2.394818e-08	0.000000e+00	1.952069e-07
-1.131999999999979e-01	3.535872e+00	2.414407e-08	0.000000e+00	1.950116e-07
-1.127999999999979e-01	3.535804e+00	2.434095e-08	0.000000e+00	1.948153e-07
-1.123999999999979e-01	3.535735e+00	2.453883e-08	0.000000e+00	1.946180e-07
-1.119999999999979e-01	3.535667e+00	2.473770e-08	0.000000e+00	1.944197e-07
-1.115999999999980e-01	3.535598e+00	2.493757e-08	0.000000e+00	1.942205e-07
-1.111999999999980e-01	3.535528e+00	2.513843e-08	0.000000e+00	1.940202e-07
-1.107999999999980e-01	3.535458e+00	2.534028e-08	0.000000e+00	1.938190e-07
-1.103999999999980e-01	3.535388e+00	2.554313e-08	0.000000e+00	1.936167e-07
-1.099999999999980e-01	3.535317e+00	2.574696e-08	0.000000e+00	1.934135e-07
-1.095999999999980e-01	3.535246e+00	2.595178e-08	0.000000e+00	1.932093e-07
-1.091999999999980e-01	3.535175e+00	2.615759e-08	0.000000e+00	1.930041e-07
-1.087999999999980e-01	3.535103e+00	2.636439e-08	0.000000e+00	1.927980e-07
-1.083999999999980e-01	3.535031e+00	2.657217e-08	0.000000e+00	1.925908e-07
-1.079999999999980e-01	3.534959e+00	2.678094e-08	0.000000e+00	1.923827e-07
-1.075999999999980e-01	3.534886e+00	2.699069e-08	0.000000e+00	1.921735e-07
-1.071999999999980e-01	3.534812e+00	2.720143e-08	0.000000e+00	1.919635e-07
-1.067999999999980e-01	3.534739e+00	2.741314e-08	0.000000e+00	1.917524e-07
-1.063999999999980e-01	3.534664e+00	2.762583e-08	0.000000e+00	1.915403e-07
-1.059999999999980e-01	3.534590e+00	2.783950e-08	0.000000e+00	1.913273e-07
-1.055999999999980e-01	3.534515e+00	2.805415e-08	0.000000e+00	1.911133e-07
-1.051999999999980e-01	3.534440e+00	2.826977e-08	0.000000e+00	1.908983e-07
-1.047999999999980e-01	3.534364e+00	2.848637e-08	0.000000e+00	1.906824e-07
-1.043999999999980e-01	3.534288e+00	2.870394e-08	0.000000e+00	1.904655e-07
-1.039999999999980e-01	3.534211e+00	2.892248e-08	0.000000e+00	1.902476e-07
-1.035999999999980e-01	3.534135e+00	2.914198e-08	0.000000e+00	1.900288e-07
-1.031999999999980e-01	3.534057e+00	2.936246e-08	0.000000e+00	1.898090e-07
-1.027999999999980e-01	3.533980e+00	2.958390e-08	0.000000e+00	1.895882e-07
-1.023999999999980e-01	3.533902e+00	2.980630e-08	0.000000e+00	1.893665e-07
-1.019999999999980e-01	3.533823e+00	3.002967e-08	0.000000e+00	1.891438e-07
-1.015999999999980e-01	3.533744e+00	3.025400e-08	0.000000e+00	1.889201e-07
-1.011999999999980e-01	3.533665e+00	3.047929e-08	0.000000e+00	1.886956e-07
-1.007999999999980e-01	3.533586e+00	3.070553e-08	0.000000e+00	1.884700e-07
-1.003999999999980e-01	3.533505e+00	3.093273e-08	0.000000e+00	1.882435e-07
-9.999999999999802e-02	3.533425e+00	3.116088e-08	0.000000e+00	1.880160e-07
-9.959999999999802e-02	3.533344e+00	3.138998e-08	0.000000e+00	1.877876e-07
-9.919999999999803e-02	3.533263e+00	3.162004e-08	0.000000e+00	1.875583e-07
-9.879999999999803e-02	3.533181e+00	3.185104e-08	0.000000e+00	1.873280e-07
-9.839999999999803e-02	3.533099e+00	3.208298e-08	0.000000e+00	1.870968e-07
-9.799999999999803e-02	3.533017e+00	3.231587e-08	0.000000e+00	1.868646e-07
-9.759999999999804e-02	3.532934e+00	3.254970e-08	0.000000e+00	1.866315e-07
-9.719999999999804e-02	3.532851e+00	3.278447e-08	0.000000e+00	1.863974e-07
-9.679999999999804e-02	3.532767e+00	3.302018e-08	0.000000e+00	1.861625e-07
-9.639999999999804e-02	3.532683e+00	3.325682e-08	0.000000e+00	1.859265e-07
-9.599999999999805e-02	3.532599e+00	3.349439e-08	0.000000e+00	1.856897e-07
-9.559999999999805e-02	3.532514e+00	3.373289e-08	0.000000e+00	1.854519e-07
