iin	V(iin)	V(vout)	I(Iin)	I(Iout)	I(Vout)
1.000000000000000e-07	4.255155e+00	5.000000e+00	1.000000e-07	1.236668e-19	1.236668e-19
1.999000000000000e-07	4.205122e+00	5.000000e+00	1.999000e-07	6.437450e-20	6.437450e-20
2.998000000000000e-07	4.169451e+00	5.000000e+00	2.998000e-07	-1.507719e-18	-1.507719e-18
3.997000000000000e-07	4.140466e+00	5.000000e+00	3.997000e-07	1.355253e-19	1.355253e-19
4.996000000000001e-07	4.115469e+00	5.000000e+00	4.996000e-07	-3.693064e-19	-3.693064e-19
5.995000000000000e-07	4.093275e+00	5.000000e+00	5.995000e-07	-3.017347e-19	-3.017347e-19
6.994000000000000e-07	4.073090e+00	5.000000e+00	6.994000e-07	5.488773e-19	5.488773e-19
7.993000000000000e-07	4.054462e+00	5.000000e+00	7.993000e-07	-4.300358e-19	-4.300358e-19
8.992000000000000e-07	4.037087e+00	5.000000e+00	8.992000e-07	-1.358927e-18	-1.358927e-18
9.991000000000001e-07	4.020745e+00	5.000000e+00	9.991001e-07	-1.039844e-18	-1.039844e-18
1.099000000000000e-06	4.005272e+00	5.000000e+00	1.099000e-06	-1.097755e-18	-1.097755e-18
1.198900000000000e-06	3.990545e+00	5.000000e+00	1.198900e-06	1.144728e-19	1.144728e-19
1.298800000000000e-06	3.976465e+00	5.000000e+00	1.298800e-06	4.871223e-19	4.871223e-19
1.398700000000000e-06	3.962954e+00	5.000000e+00	1.398700e-06	5.964759e-21	5.964759e-21
1.498600000000001e-06	3.949947e+00	5.000000e+00	1.498600e-06	-8.478853e-19	-8.478853e-19
1.598500000000001e-06	3.937392e+00	5.000000e+00	1.598500e-06	-8.208193e-19	-8.208193e-19
1.698400000000001e-06	3.925245e+00	5.000000e+00	1.698400e-06	2.565690e-19	2.565690e-19
1.798300000000001e-06	3.913467e+00	5.000000e+00	1.798300e-06	-4.133521e-19	-4.133521e-19
1.898200000000001e-06	3.902026e+00	5.000000e+00	1.898200e-06	1.429792e-18	1.429792e-18
1.998100000000001e-06	3.890895e+00	5.000000e+00	1.998100e-06	-9.632630e-19	-9.632630e-19
2.098000000000001e-06	3.880049e+00	5.000000e+00	2.098000e-06	-1.585646e-18	-1.585646e-18
2.197900000000001e-06	3.869467e+00	5.000000e+00	2.197900e-06	-4.347785e-19	-4.347785e-19
2.297800000000001e-06	3.859130e+00	5.000000e+00	2.297800e-06	1.592422e-18	1.592422e-18
2.397700000000001e-06	3.849021e+00	5.000000e+00	2.397700e-06	3.794708e-19	3.794708e-19
2.497600000000001e-06	3.839126e+00	5.000000e+00	2.497600e-06	-1.558541e-18	-1.558541e-18
2.597500000000001e-06	3.829431e+00	5.000000e+00	2.597500e-06	2.032879e-19	2.032879e-19
2.697400000000001e-06	3.819924e+00	5.000000e+00	2.697400e-06	-8.131516e-20	-8.131516e-20
2.797300000000002e-06	3.810594e+00	5.000000e+00	2.797300e-06	-4.933978e-19	-4.933978e-19
2.897200000000002e-06	3.801431e+00	5.000000e+00	2.897200e-06	-1.279418e-18	-1.279418e-18
2.997100000000002e-06	3.792426e+00	5.000000e+00	2.997100e-06	4.553309e-19	4.553309e-19
3.097000000000002e-06	3.783571e+00	5.000000e+00	3.097000e-06	1.124860e-18	1.124860e-18
3.196900000000002e-06	3.774859e+00	5.000000e+00	3.196900e-06	1.165672e-19	1.165672e-19
3.296800000000002e-06	3.766282e+00	5.000000e+00	3.296800e-06	2.792216e-19	2.792216e-19
3.396700000000002e-06	3.757834e+00	5.000000e+00	3.396700e-06	1.390552e-18	1.390552e-18
3.496600000000002e-06	3.749509e+00	5.000000e+00	3.496600e-06	1.084202e-19	1.084202e-19
3.596500000000002e-06	3.741302e+00	5.000000e+00	3.596500e-06	3.712305e-19	3.712305e-19
3.696400000000002e-06	3.733207e+00	5.000000e+00	3.696400e-06	3.523657e-19	3.523657e-19
3.796300000000003e-06	3.725219e+00	5.000000e+00	3.796300e-06	1.121844e-18	1.121844e-18
3.896200000000003e-06	3.717336e+00	5.000000e+00	3.896200e-06	-9.893345e-19	-9.893345e-19
3.996100000000002e-06	3.709551e+00	5.000000e+00	3.996100e-06	1.382358e-18	1.382358e-18
4.096000000000002e-06	3.701862e+00	5.000000e+00	4.096000e-06	2.439455e-19	2.439455e-19
4.195900000000002e-06	3.694264e+00	5.000000e+00	4.195900e-06	-3.659182e-19	-3.659182e-19
4.295800000000001e-06	3.686755e+00	5.000000e+00	4.295800e-06	4.640096e-19	4.640096e-19
4.395700000000001e-06	3.679331e+00	5.000000e+00	4.395700e-06	7.215472e-19	7.215472e-19
4.495600000000001e-06	3.671989e+00	5.000000e+00	4.495600e-06	-6.369688e-19	-6.369688e-19
4.595500000000000e-06	3.664726e+00	5.000000e+00	4.595500e-06	1.186322e-19	1.186322e-19
4.695400000000000e-06	3.657540e+00	5.000000e+00	4.695400e-06	1.124860e-18	1.124860e-18
4.795300000000000e-06	3.650428e+00	5.000000e+00	4.795300e-06	-1.284074e-18	-1.284074e-18
4.895199999999999e-06	3.643387e+00	5.000000e+00	4.895200e-06	7.453890e-19	7.453890e-19
4.995099999999999e-06	3.636416e+00	5.000000e+00	4.995100e-06	-9.215718e-19	-9.215718e-19
5.094999999999999e-06	3.629512e+00	5.000000e+00	5.095000e-06	-5.014435e-19	-5.014435e-19
5.194899999999998e-06	3.622673e+00	5.000000e+00	5.194900e-06	-1.314595e-18	-1.314595e-18
5.294799999999998e-06	3.615897e+00	5.000000e+00	5.294800e-06	2.132459e-19	2.132459e-19
5.394699999999998e-06	3.609183e+00	5.000000e+00	5.394700e-06	9.622294e-19	9.622294e-19
5.494599999999997e-06	3.602528e+00	5.000000e+00	5.494600e-06	9.486769e-20	9.486769e-20
5.594499999999997e-06	3.595931e+00	5.000000e+00	5.594500e-06	-8.846107e-19	-8.846107e-19
5.694399999999997e-06	3.589390e+00	5.000000e+00	5.694400e-06	2.710505e-20	2.710505e-20
5.794299999999996e-06	3.582904e+00	5.000000e+00	5.794300e-06	6.911789e-19	6.911789e-19
5.894199999999996e-06	3.576471e+00	5.000000e+00	5.894200e-06	1.151965e-18	1.151965e-18
5.994099999999996e-06	3.570090e+00	5.000000e+00	5.994100e-06	-7.047314e-19	-7.047314e-19
6.093999999999995e-06	3.563760e+00	5.000000e+00	6.094000e-06	-1.297184e-18	-1.297184e-18
6.193899999999995e-06	3.557479e+00	5.000000e+00	6.193900e-06	1.599198e-18	1.599198e-18
6.293799999999995e-06	3.551246e+00	5.000000e+00	6.293800e-06	-1.202254e-18	-1.202254e-18
6.393699999999994e-06	3.545060e+00	5.000000e+00	6.393700e-06	-1.897354e-19	-1.897354e-19
6.493599999999994e-06	3.538919e+00	5.000000e+00	6.493600e-06	-1.314595e-18	-1.314595e-18
6.593499999999994e-06	3.532823e+00	5.000000e+00	6.593500e-06	-2.670388e-19	-2.670388e-19
6.693399999999993e-06	3.526771e+00	5.000000e+00	6.693400e-06	-4.041416e-21	-4.041416e-21
6.793299999999993e-06	3.520761e+00	5.000000e+00	6.793300e-06	-6.369183e-20	-6.369183e-20
6.893199999999993e-06	3.514793e+00	5.000000e+00	6.893200e-06	4.743385e-19	4.743385e-19
6.993099999999992e-06	3.508865e+00	5.000000e+00	6.993100e-06	-3.022843e-19	-3.022843e-19
7.092999999999992e-06	3.502977e+00	5.000000e+00	7.093000e-06	9.486769e-20	9.486769e-20
7.192899999999992e-06	3.497128e+00	5.000000e+00	7.192900e-06	-3.346277e-19	-3.346277e-19
7.292799999999991e-06	3.491317e+00	5.000000e+00	7.292800e-06	-1.223941e-18	-1.223941e-18
7.392699999999991e-06	3.485543e+00	5.000000e+00	7.392700e-06	-1.939766e-19	-1.939766e-19
7.492599999999991e-06	3.479806e+00	5.000000e+00	7.492600e-06	7.453890e-19	7.453890e-19
7.592499999999990e-06	3.474104e+00	5.000000e+00	7.592500e-06	-4.743385e-19	-4.743385e-19
7.692399999999991e-06	3.468437e+00	5.000000e+00	7.692400e-06	1.423015e-18	1.423015e-18
7.792299999999991e-06	3.462805e+00	5.000000e+00	7.792300e-06	-2.303930e-19	-2.303930e-19
7.892199999999992e-06	3.457206e+00	5.000000e+00	7.892200e-06	-4.293047e-19	-4.293047e-19
7.992099999999992e-06	3.451640e+00	5.000000e+00	7.992100e-06	1.043545e-18	1.043545e-18
8.091999999999993e-06	3.446106e+00	5.000000e+00	8.092000e-06	4.110044e-19	4.110044e-19
8.191899999999994e-06	3.440604e+00	5.000000e+00	8.191900e-06	7.498434e-19	7.498434e-19
8.291799999999994e-06	3.435133e+00	5.000000e+00	8.291800e-06	-2.890831e-19	-2.890831e-19
8.391699999999995e-06	3.429692e+00	5.000000e+00	8.391700e-06	-5.014435e-19	-5.014435e-19
8.491599999999995e-06	3.424282e+00	5.000000e+00	8.491600e-06	7.815160e-19	7.815160e-19
8.591499999999996e-06	3.418900e+00	5.000000e+00	8.591500e-06	1.761829e-19	1.761829e-19
8.691399999999996e-06	3.413548e+00	5.000000e+00	8.691400e-06	-1.608170e-18	-1.608170e-18
8.791299999999997e-06	3.408224e+00	5.000000e+00	8.791300e-06	-1.066045e-18	-1.066045e-18
8.891199999999997e-06	3.402928e+00	5.000000e+00	8.891200e-06	1.517883e-18	1.517883e-18
8.991099999999998e-06	3.397659e+00	5.000000e+00	8.991100e-06	-2.303930e-19	-2.303930e-19
9.090999999999998e-06	3.392417e+00	5.000000e+00	9.091000e-06	-8.762366e-19	-8.762366e-19
9.190899999999999e-06	3.387201e+00	5.000000e+00	9.190900e-06	-6.369688e-19	-6.369688e-19
9.290799999999999e-06	3.382011e+00	5.000000e+00	9.290800e-06	-3.794708e-19	-3.794708e-19
9.390700000000000e-06	3.376847e+00	5.000000e+00	9.390700e-06	8.673617e-19	8.673617e-19
9.490600000000000e-06	3.371708e+00	5.000000e+00	9.490600e-06	-8.450288e-19	-8.450288e-19
9.590500000000001e-06	3.366594e+00	5.000000e+00	9.590500e-06	-1.120064e-18	-1.120064e-18
9.690400000000001e-06	3.361504e+00	5.000000e+00	9.690400e-06	1.278756e-18	1.278756e-18
9.790300000000002e-06	3.356438e+00	5.000000e+00	9.790300e-06	1.355253e-20	1.355253e-20
9.890200000000002e-06	3.351396e+00	5.000000e+00	9.890200e-06	6.960427e-19	6.960427e-19
9.990100000000003e-06	3.346376e+00	5.000000e+00	9.990100e-06	6.049775e-19	6.049775e-19
1.009000000000000e-05	3.341380e+00	5.000000e+00	1.009000e-05	1.897354e-19	1.897354e-19
1.018990000000000e-05	3.336406e+00	5.000000e+00	1.018990e-05	-8.621683e-21	-8.621683e-21
1.028980000000000e-05	3.331454e+00	5.000000e+00	1.028980e-05	9.486769e-19	9.486769e-19
1.038970000000000e-05	3.326524e+00	5.000000e+00	1.038970e-05	2.710505e-19	2.710505e-19
1.048960000000001e-05	3.321615e+00	5.000000e+00	1.048960e-05	-5.149960e-19	-5.149960e-19
1.058950000000001e-05	3.316728e+00	5.000000e+00	1.058950e-05	1.129878e-18	1.129878e-18
1.068940000000001e-05	3.311861e+00	5.000000e+00	1.068940e-05	-1.084202e-18	-1.084202e-18
1.078930000000001e-05	3.307015e+00	5.000000e+00	1.078930e-05	7.403280e-19	7.403280e-19
1.088920000000001e-05	3.302189e+00	5.000000e+00	1.088920e-05	1.002887e-18	1.002887e-18
1.098910000000001e-05	3.297384e+00	5.000000e+00	1.098910e-05	1.270760e-19	1.270760e-19
1.108900000000001e-05	3.292597e+00	5.000000e+00	1.108900e-05	-1.246832e-18	-1.246832e-18
1.118890000000001e-05	3.287831e+00	5.000000e+00	1.118890e-05	3.523657e-19	3.523657e-19
1.128880000000001e-05	3.283083e+00	5.000000e+00	1.128880e-05	-6.234162e-19	-6.234162e-19
1.138870000000001e-05	3.278354e+00	5.000000e+00	1.138870e-05	-4.336809e-19	-4.336809e-19
1.148860000000001e-05	3.273644e+00	5.000000e+00	1.148860e-05	-7.943925e-19	-7.943925e-19
1.158850000000001e-05	3.268952e+00	5.000000e+00	1.158850e-05	-9.049206e-19	-9.049206e-19
1.168840000000001e-05	3.264279e+00	5.000000e+00	1.168840e-05	1.073708e-18	1.073708e-18
1.178830000000001e-05	3.259623e+00	5.000000e+00	1.178830e-05	-4.607859e-19	-4.607859e-19
1.188820000000001e-05	3.254985e+00	5.000000e+00	1.188820e-05	-2.981556e-19	-2.981556e-19
1.198810000000001e-05	3.250364e+00	5.000000e+00	1.198810e-05	2.168404e-19	2.168404e-19
1.208800000000001e-05	3.245761e+00	5.000000e+00	1.208800e-05	1.626303e-19	1.626303e-19
1.218790000000001e-05	3.241174e+00	5.000000e+00	1.218790e-05	-3.794708e-19	-3.794708e-19
1.228780000000001e-05	3.236605e+00	5.000000e+00	1.228780e-05	1.790041e-19	1.790041e-19
1.238770000000002e-05	3.232052e+00	5.000000e+00	1.238770e-05	-1.517883e-18	-1.517883e-18
1.248760000000002e-05	3.227515e+00	5.000000e+00	1.248760e-05	5.149960e-19	5.149960e-19
1.258750000000002e-05	3.222994e+00	5.000000e+00	1.258750e-05	-1.246832e-18	-1.246832e-18
1.268740000000002e-05	3.218489e+00	5.000000e+00	1.268740e-05	-1.534103e-18	-1.534103e-18
1.278730000000002e-05	3.214000e+00	5.000000e+00	1.278730e-05	-1.897354e-19	-1.897354e-19
1.288720000000002e-05	3.209527e+00	5.000000e+00	1.288720e-05	5.311406e-19	5.311406e-19
1.298710000000002e-05	3.205069e+00	5.000000e+00	1.298710e-05	-2.710505e-20	-2.710505e-20
1.308700000000002e-05	3.200626e+00	5.000000e+00	1.308700e-05	1.556023e-18	1.556023e-18
1.318690000000002e-05	3.196198e+00	5.000000e+00	1.318690e-05	-8.944668e-19	-8.944668e-19
1.328680000000002e-05	3.191785e+00	5.000000e+00	1.328680e-05	-7.047314e-19	-7.047314e-19
1.338670000000002e-05	3.187387e+00	5.000000e+00	1.338670e-05	6.776264e-19	6.776264e-19
1.348660000000002e-05	3.183003e+00	5.000000e+00	1.348660e-05	-8.131516e-19	-8.131516e-19
1.358650000000002e-05	3.178634e+00	5.000000e+00	1.358650e-05	4.766725e-19	4.766725e-19
1.368640000000002e-05	3.174278e+00	5.000000e+00	1.368640e-05	1.897354e-19	1.897354e-19
1.378630000000002e-05	3.169937e+00	5.000000e+00	1.378630e-05	-3.794708e-19	-3.794708e-19
1.388620000000002e-05	3.165610e+00	5.000000e+00	1.388620e-05	1.029992e-18	1.029992e-18
1.398610000000002e-05	3.161296e+00	5.000000e+00	1.398610e-05	-9.757820e-19	-9.757820e-19
1.408600000000002e-05	3.156996e+00	5.000000e+00	1.408600e-05	7.860466e-19	7.860466e-19
1.418590000000002e-05	3.152709e+00	5.000000e+00	1.418590e-05	1.490778e-18	1.490778e-18
1.428580000000003e-05	3.148435e+00	5.000000e+00	1.428580e-05	9.059341e-19	9.059341e-19
1.438570000000003e-05	3.144175e+00	5.000000e+00	1.438570e-05	5.421011e-19	5.421011e-19
1.448560000000003e-05	3.139927e+00	5.000000e+00	1.448560e-05	-3.523657e-19	-3.523657e-19
1.458550000000003e-05	3.135693e+00	5.000000e+00	1.458550e-05	-4.723572e-19	-4.723572e-19
1.468540000000003e-05	3.131471e+00	5.000000e+00	1.468540e-05	1.289437e-18	1.289437e-18
1.478530000000003e-05	3.127261e+00	5.000000e+00	1.478530e-05	-1.192622e-18	-1.192622e-18
1.488520000000003e-05	3.123065e+00	5.000000e+00	1.488520e-05	-1.165517e-18	-1.165517e-18
1.498510000000003e-05	3.118880e+00	5.000000e+00	1.498510e-05	0.000000e+00	0.000000e+00
1.508500000000003e-05	3.114707e+00	5.000000e+00	1.508500e-05	-3.135193e-19	-3.135193e-19
1.518490000000003e-05	3.110547e+00	5.000000e+00	1.518490e-05	-2.828254e-19	-2.828254e-19
1.528480000000003e-05	3.106398e+00	5.000000e+00	1.528480e-05	4.878910e-19	4.878910e-19
1.538470000000003e-05	3.102262e+00	5.000000e+00	1.538470e-05	5.421011e-19	5.421011e-19
1.548460000000003e-05	3.098136e+00	5.000000e+00	1.548460e-05	5.421011e-20	5.421011e-20
1.558450000000003e-05	3.094023e+00	5.000000e+00	1.558450e-05	7.860466e-19	7.860466e-19
1.568440000000003e-05	3.089921e+00	5.000000e+00	1.568440e-05	2.591104e-19	2.591104e-19
1.578430000000002e-05	3.085830e+00	5.000000e+00	1.578430e-05	-1.029992e-18	-1.029992e-18
1.588420000000002e-05	3.081751e+00	5.000000e+00	1.588420e-05	4.607859e-19	4.607859e-19
1.598410000000002e-05	3.077682e+00	5.000000e+00	1.598410e-05	-3.252607e-19	-3.252607e-19
1.608400000000002e-05	3.073625e+00	5.000000e+00	1.608400e-05	1.150482e-18	1.150482e-18
1.618390000000002e-05	3.069579e+00	5.000000e+00	1.618390e-05	1.029992e-18	1.029992e-18
1.628380000000002e-05	3.065543e+00	5.000000e+00	1.628380e-05	-1.286071e-18	-1.286071e-18
1.638370000000002e-05	3.061518e+00	5.000000e+00	1.638370e-05	-1.138412e-18	-1.138412e-18
1.648360000000002e-05	3.057504e+00	5.000000e+00	1.648360e-05	1.355253e-19	1.355253e-19
1.658350000000001e-05	3.053500e+00	5.000000e+00	1.658350e-05	5.692061e-19	5.692061e-19
1.668340000000001e-05	3.049507e+00	5.000000e+00	1.668340e-05	-2.168404e-19	-2.168404e-19
1.678330000000001e-05	3.045524e+00	5.000000e+00	1.678330e-05	0.000000e+00	0.000000e+00
1.688320000000001e-05	3.041551e+00	5.000000e+00	1.688320e-05	5.002130e-19	5.002130e-19
1.698310000000001e-05	3.037588e+00	5.000000e+00	1.698310e-05	1.207374e-18	1.207374e-18
1.708300000000001e-05	3.033635e+00	5.000000e+00	1.708300e-05	2.710505e-19	2.710505e-19
1.718290000000001e-05	3.029693e+00	5.000000e+00	1.718290e-05	-1.517883e-18	-1.517883e-18
1.728280000000001e-05	3.025760e+00	5.000000e+00	1.728280e-05	1.057097e-18	1.057097e-18
1.738270000000001e-05	3.021837e+00	5.000000e+00	1.738270e-05	-7.443120e-19	-7.443120e-19
1.748260000000000e-05	3.017923e+00	5.000000e+00	1.748260e-05	1.328148e-18	1.328148e-18
1.758250000000000e-05	3.014019e+00	5.000000e+00	1.758250e-05	-3.252607e-19	-3.252607e-19
1.768240000000000e-05	3.010125e+00	5.000000e+00	1.768240e-05	-2.981556e-19	-2.981556e-19
1.778230000000000e-05	3.006240e+00	5.000000e+00	1.778230e-05	9.486769e-19	9.486769e-19
1.788220000000000e-05	3.002364e+00	5.000000e+00	1.788220e-05	-3.920965e-19	-3.920965e-19
1.798210000000000e-05	2.998497e+00	5.000000e+00	1.798210e-05	-1.897354e-19	-1.897354e-19
1.808200000000000e-05	2.994640e+00	5.000000e+00	1.808200e-05	1.355253e-18	1.355253e-18
1.818190000000000e-05	2.990792e+00	5.000000e+00	1.818190e-05	-1.423853e-18	-1.423853e-18
1.828179999999999e-05	2.986953e+00	5.000000e+00	1.828180e-05	4.751472e-19	4.751472e-19
1.838169999999999e-05	2.983123e+00	5.000000e+00	1.838170e-05	3.252607e-19	3.252607e-19
1.848159999999999e-05	2.979301e+00	5.000000e+00	1.848160e-05	6.633235e-19	6.633235e-19
1.858149999999999e-05	2.975489e+00	5.000000e+00	1.858150e-05	-4.336809e-19	-4.336809e-19
1.868139999999999e-05	2.971685e+00	5.000000e+00	1.868140e-05	-9.556016e-20	-9.556016e-20
1.878129999999999e-05	2.967890e+00	5.000000e+00	1.878130e-05	-5.692061e-19	-5.692061e-19
1.888119999999999e-05	2.964103e+00	5.000000e+00	1.888120e-05	1.226078e-19	1.226078e-19
1.898109999999999e-05	2.960325e+00	5.000000e+00	1.898110e-05	-4.607859e-19	-4.607859e-19
1.908099999999999e-05	2.956556e+00	5.000000e+00	1.908100e-05	-4.737604e-19	-4.737604e-19
1.918089999999998e-05	2.952795e+00	5.000000e+00	1.918090e-05	4.206780e-19	4.206780e-19
1.928079999999998e-05	2.949042e+00	5.000000e+00	1.928080e-05	8.131516e-20	8.131516e-20
1.938069999999998e-05	2.945297e+00	5.000000e+00	1.938070e-05	0.000000e+00	0.000000e+00
1.948059999999998e-05	2.941561e+00	5.000000e+00	1.948060e-05	-8.262389e-19	-8.262389e-19
1.958049999999998e-05	2.937832e+00	5.000000e+00	1.958050e-05	-4.878910e-19	-4.878910e-19
1.968039999999998e-05	2.934112e+00	5.000000e+00	1.968040e-05	2.036975e-19	2.036975e-19
1.978029999999998e-05	2.930399e+00	5.000000e+00	1.978030e-05	-1.558159e-18	-1.558159e-18
1.988019999999998e-05	2.926695e+00	5.000000e+00	1.988020e-05	-6.095095e-19	-6.095095e-19
1.998009999999997e-05	2.922998e+00	5.000000e+00	1.998010e-05	-4.607859e-19	-4.607859e-19
2.007999999999997e-05	2.919309e+00	5.000000e+00	2.008000e-05	-1.138412e-18	-1.138412e-18
2.017989999999997e-05	2.915628e+00	5.000000e+00	2.017990e-05	1.395638e-18	1.395638e-18
2.027979999999997e-05	2.911955e+00	5.000000e+00	2.027980e-05	-1.192622e-18	-1.192622e-18
2.037969999999997e-05	2.908289e+00	5.000000e+00	2.037970e-05	7.860466e-19	7.860466e-19
2.047959999999997e-05	2.904631e+00	5.000000e+00	2.047960e-05	3.252607e-19	3.252607e-19
2.057949999999997e-05	2.900980e+00	5.000000e+00	2.057950e-05	-2.573344e-19	-2.573344e-19
2.067939999999997e-05	2.897336e+00	5.000000e+00	2.067940e-05	-5.828955e-19	-5.828955e-19
2.077929999999997e-05	2.893701e+00	5.000000e+00	2.077930e-05	6.765256e-20	6.765256e-20
2.087919999999996e-05	2.890072e+00	5.000000e+00	2.087920e-05	-3.252607e-19	-3.252607e-19
2.097909999999996e-05	2.886451e+00	5.000000e+00	2.097910e-05	6.234162e-19	6.234162e-19
2.107899999999996e-05	2.882837e+00	5.000000e+00	2.107900e-05	-6.234162e-19	-6.234162e-19
2.117889999999996e-05	2.879230e+00	5.000000e+00	2.117890e-05	4.336809e-19	4.336809e-19
2.127879999999996e-05	2.875630e+00	5.000000e+00	2.127880e-05	-1.355253e-18	-1.355253e-18
2.137869999999996e-05	2.872037e+00	5.000000e+00	2.137870e-05	4.200799e-19	4.200799e-19
2.147859999999996e-05	2.868452e+00	5.000000e+00	2.147860e-05	8.402567e-19	8.402567e-19
2.157849999999996e-05	2.864873e+00	5.000000e+00	2.157850e-05	-6.505213e-19	-6.505213e-19
2.167839999999995e-05	2.861301e+00	5.000000e+00	2.167840e-05	-1.436568e-18	-1.436568e-18
2.177829999999995e-05	2.857736e+00	5.000000e+00	2.177830e-05	-1.370486e-20	-1.370486e-20
2.187819999999995e-05	2.854178e+00	5.000000e+00	2.187820e-05	4.607859e-19	4.607859e-19
2.197809999999995e-05	2.850626e+00	5.000000e+00	2.197810e-05	6.776264e-19	6.776264e-19
2.207799999999995e-05	2.847082e+00	5.000000e+00	2.207800e-05	4.607859e-19	4.607859e-19
2.217789999999995e-05	2.843544e+00	5.000000e+00	2.217790e-05	0.000000e+00	0.000000e+00
2.227779999999995e-05	2.840013e+00	5.000000e+00	2.227780e-05	4.878910e-19	4.878910e-19
2.237769999999995e-05	2.836488e+00	5.000000e+00	2.237770e-05	-8.944668e-19	-8.944668e-19
