iin	V(iin)	I(Iin)	I(Iout)	I(Vdd)	I(Vout)
1.000000000000000e-07	4.255155e+00	1.000000e-07	1.159478e-07	-2.159478e-07	1.159478e-07
1.999000000000000e-07	4.205122e+00	1.999000e-07	2.273593e-07	-4.272593e-07	2.273593e-07
2.998000000000000e-07	4.169451e+00	2.998000e-07	3.373944e-07	-6.371944e-07	3.373944e-07
3.997000000000000e-07	4.140466e+00	3.997000e-07	4.466547e-07	-8.463547e-07	4.466547e-07
4.996000000000001e-07	4.115469e+00	4.996000e-07	5.553920e-07	-1.054992e-06	5.553920e-07
5.995000000000000e-07	4.093275e+00	5.995000e-07	6.637413e-07	-1.263241e-06	6.637413e-07
6.994000000000000e-07	4.073090e+00	6.994000e-07	7.717854e-07	-1.471185e-06	7.717854e-07
7.993000000000000e-07	4.054462e+00	7.993000e-07	8.795796e-07	-1.678880e-06	8.795796e-07
8.992000000000000e-07	4.037087e+00	8.992000e-07	9.871632e-07	-1.886363e-06	9.871632e-07
9.991000000000001e-07	4.020745e+00	9.991001e-07	1.094565e-06	-2.093665e-06	1.094565e-06
1.099000000000000e-06	4.005272e+00	1.099000e-06	1.201809e-06	-2.300809e-06	1.201809e-06
1.198900000000000e-06	3.990545e+00	1.198900e-06	1.308910e-06	-2.507810e-06	1.308910e-06
1.298800000000000e-06	3.976465e+00	1.298800e-06	1.415885e-06	-2.714685e-06	1.415885e-06
1.398700000000000e-06	3.962954e+00	1.398700e-06	1.522745e-06	-2.921445e-06	1.522745e-06
1.498600000000001e-06	3.949947e+00	1.498600e-06	1.629499e-06	-3.128099e-06	1.629499e-06
1.598500000000001e-06	3.937392e+00	1.598500e-06	1.736156e-06	-3.334656e-06	1.736156e-06
1.698400000000001e-06	3.925245e+00	1.698400e-06	1.842723e-06	-3.541123e-06	1.842723e-06
1.798300000000001e-06	3.913467e+00	1.798300e-06	1.949206e-06	-3.747506e-06	1.949206e-06
1.898200000000001e-06	3.902026e+00	1.898200e-06	2.055611e-06	-3.953811e-06	2.055611e-06
1.998100000000001e-06	3.890895e+00	1.998100e-06	2.161942e-06	-4.160042e-06	2.161942e-06
2.098000000000001e-06	3.880049e+00	2.098000e-06	2.268203e-06	-4.366203e-06	2.268203e-06
2.197900000000001e-06	3.869467e+00	2.197900e-06	2.374399e-06	-4.572299e-06	2.374399e-06
2.297800000000001e-06	3.859130e+00	2.297800e-06	2.480532e-06	-4.778332e-06	2.480532e-06
2.397700000000001e-06	3.849021e+00	2.397700e-06	2.586606e-06	-4.984306e-06	2.586606e-06
2.497600000000001e-06	3.839126e+00	2.497600e-06	2.692623e-06	-5.190223e-06	2.692623e-06
2.597500000000001e-06	3.829431e+00	2.597500e-06	2.798585e-06	-5.396085e-06	2.798585e-06
2.697400000000001e-06	3.819924e+00	2.697400e-06	2.904496e-06	-5.601896e-06	2.904496e-06
2.797300000000002e-06	3.810594e+00	2.797300e-06	3.010357e-06	-5.807657e-06	3.010357e-06
2.897200000000002e-06	3.801431e+00	2.897200e-06	3.116170e-06	-6.013370e-06	3.116170e-06
2.997100000000002e-06	3.792426e+00	2.997100e-06	3.221937e-06	-6.219037e-06	3.221937e-06
3.097000000000002e-06	3.783571e+00	3.097000e-06	3.327659e-06	-6.424659e-06	3.327659e-06
3.196900000000002e-06	3.774859e+00	3.196900e-06	3.433338e-06	-6.630238e-06	3.433338e-06
3.296800000000002e-06	3.766282e+00	3.296800e-06	3.538976e-06	-6.835776e-06	3.538976e-06
3.396700000000002e-06	3.757834e+00	3.396700e-06	3.644573e-06	-7.041273e-06	3.644573e-06
3.496600000000002e-06	3.749509e+00	3.496600e-06	3.750131e-06	-7.246731e-06	3.750131e-06
3.596500000000002e-06	3.741302e+00	3.596500e-06	3.855651e-06	-7.452151e-06	3.855651e-06
3.696400000000002e-06	3.733207e+00	3.696400e-06	3.961135e-06	-7.657535e-06	3.961135e-06
3.796300000000003e-06	3.725219e+00	3.796300e-06	4.066582e-06	-7.862883e-06	4.066582e-06
3.896200000000003e-06	3.717336e+00	3.896200e-06	4.171995e-06	-8.068195e-06	4.171995e-06
3.996100000000002e-06	3.709551e+00	3.996100e-06	4.277374e-06	-8.273474e-06	4.277374e-06
4.096000000000002e-06	3.701862e+00	4.096000e-06	4.382720e-06	-8.478720e-06	4.382720e-06
4.195900000000002e-06	3.694264e+00	4.195900e-06	4.488033e-06	-8.683933e-06	4.488033e-06
4.295800000000001e-06	3.686755e+00	4.295800e-06	4.593315e-06	-8.889115e-06	4.593315e-06
4.395700000000001e-06	3.679331e+00	4.395700e-06	4.698566e-06	-9.094266e-06	4.698566e-06
4.495600000000001e-06	3.671989e+00	4.495600e-06	4.803787e-06	-9.299387e-06	4.803787e-06
4.595500000000000e-06	3.664726e+00	4.595500e-06	4.908979e-06	-9.504479e-06	4.908979e-06
4.695400000000000e-06	3.657540e+00	4.695400e-06	5.014141e-06	-9.709542e-06	5.014141e-06
4.795300000000000e-06	3.650428e+00	4.795300e-06	5.119276e-06	-9.914575e-06	5.119276e-06
4.895199999999999e-06	3.643387e+00	4.895200e-06	5.224383e-06	-1.011958e-05	5.224383e-06
4.995099999999999e-06	3.636416e+00	4.995100e-06	5.329462e-06	-1.032456e-05	5.329462e-06
5.094999999999999e-06	3.629512e+00	5.095000e-06	5.434515e-06	-1.052951e-05	5.434515e-06
5.194899999999998e-06	3.622673e+00	5.194900e-06	5.539542e-06	-1.073444e-05	5.539542e-06
5.294799999999998e-06	3.615897e+00	5.294800e-06	5.644543e-06	-1.093934e-05	5.644543e-06
5.394699999999998e-06	3.609183e+00	5.394700e-06	5.749519e-06	-1.114422e-05	5.749519e-06
5.494599999999997e-06	3.602528e+00	5.494600e-06	5.854471e-06	-1.134907e-05	5.854471e-06
5.594499999999997e-06	3.595931e+00	5.594500e-06	5.959398e-06	-1.155390e-05	5.959398e-06
5.694399999999997e-06	3.589390e+00	5.694400e-06	6.064301e-06	-1.175870e-05	6.064301e-06
5.794299999999996e-06	3.582904e+00	5.794300e-06	6.169181e-06	-1.196348e-05	6.169181e-06
5.894199999999996e-06	3.576471e+00	5.894200e-06	6.274037e-06	-1.216824e-05	6.274037e-06
5.994099999999996e-06	3.570090e+00	5.994100e-06	6.378871e-06	-1.237297e-05	6.378871e-06
6.093999999999995e-06	3.563760e+00	6.094000e-06	6.483682e-06	-1.257768e-05	6.483682e-06
6.193899999999995e-06	3.557479e+00	6.193900e-06	6.588471e-06	-1.278237e-05	6.588471e-06
6.293799999999995e-06	3.551246e+00	6.293800e-06	6.693238e-06	-1.298704e-05	6.693238e-06
6.393699999999994e-06	3.545060e+00	6.393700e-06	6.797984e-06	-1.319168e-05	6.797984e-06
6.493599999999994e-06	3.538919e+00	6.493600e-06	6.902709e-06	-1.339631e-05	6.902709e-06
6.593499999999994e-06	3.532823e+00	6.593500e-06	7.007413e-06	-1.360091e-05	7.007413e-06
6.693399999999993e-06	3.526771e+00	6.693400e-06	7.112097e-06	-1.380550e-05	7.112097e-06
6.793299999999993e-06	3.520761e+00	6.793300e-06	7.216760e-06	-1.401006e-05	7.216760e-06
6.893199999999993e-06	3.514793e+00	6.893200e-06	7.321402e-06	-1.421460e-05	7.321402e-06
6.993099999999992e-06	3.508865e+00	6.993100e-06	7.426026e-06	-1.441913e-05	7.426026e-06
7.092999999999992e-06	3.502977e+00	7.093000e-06	7.530629e-06	-1.462363e-05	7.530629e-06
7.192899999999992e-06	3.497128e+00	7.192900e-06	7.635213e-06	-1.482811e-05	7.635213e-06
7.292799999999991e-06	3.491317e+00	7.292800e-06	7.739779e-06	-1.503258e-05	7.739779e-06
7.392699999999991e-06	3.485543e+00	7.392700e-06	7.844325e-06	-1.523702e-05	7.844325e-06
7.492599999999991e-06	3.479806e+00	7.492600e-06	7.948853e-06	-1.544145e-05	7.948853e-06
7.592499999999990e-06	3.474104e+00	7.592500e-06	8.053362e-06	-1.564586e-05	8.053362e-06
7.692399999999991e-06	3.468437e+00	7.692400e-06	8.157853e-06	-1.585025e-05	8.157853e-06
7.792299999999991e-06	3.462805e+00	7.792300e-06	8.262326e-06	-1.605463e-05	8.262326e-06
7.892199999999992e-06	3.457206e+00	7.892200e-06	8.366782e-06	-1.625898e-05	8.366782e-06
7.992099999999992e-06	3.451640e+00	7.992100e-06	8.471219e-06	-1.646332e-05	8.471219e-06
8.091999999999993e-06	3.446106e+00	8.092000e-06	8.575640e-06	-1.666764e-05	8.575640e-06
8.191899999999994e-06	3.440604e+00	8.191900e-06	8.680043e-06	-1.687194e-05	8.680043e-06
8.291799999999994e-06	3.435133e+00	8.291800e-06	8.784428e-06	-1.707623e-05	8.784428e-06
8.391699999999995e-06	3.429692e+00	8.391700e-06	8.888797e-06	-1.728050e-05	8.888797e-06
8.491599999999995e-06	3.424282e+00	8.491600e-06	8.993150e-06	-1.748475e-05	8.993150e-06
8.591499999999996e-06	3.418900e+00	8.591500e-06	9.097486e-06	-1.768899e-05	9.097486e-06
8.691399999999996e-06	3.413548e+00	8.691400e-06	9.201805e-06	-1.789321e-05	9.201805e-06
8.791299999999997e-06	3.408224e+00	8.791300e-06	9.306108e-06	-1.809741e-05	9.306108e-06
8.891199999999997e-06	3.402928e+00	8.891200e-06	9.410395e-06	-1.830159e-05	9.410395e-06
8.991099999999998e-06	3.397659e+00	8.991100e-06	9.514666e-06	-1.850577e-05	9.514666e-06
9.090999999999998e-06	3.392417e+00	9.091000e-06	9.618921e-06	-1.870992e-05	9.618921e-06
9.190899999999999e-06	3.387201e+00	9.190900e-06	9.723161e-06	-1.891406e-05	9.723161e-06
9.290799999999999e-06	3.382011e+00	9.290800e-06	9.827386e-06	-1.911819e-05	9.827386e-06
9.390700000000000e-06	3.376847e+00	9.390700e-06	9.931594e-06	-1.932229e-05	9.931594e-06
9.490600000000000e-06	3.371708e+00	9.490600e-06	1.003579e-05	-1.952639e-05	1.003579e-05
9.590500000000001e-06	3.366594e+00	9.590500e-06	1.013997e-05	-1.973047e-05	1.013997e-05
9.690400000000001e-06	3.361504e+00	9.690400e-06	1.024413e-05	-1.993453e-05	1.024413e-05
9.790300000000002e-06	3.356438e+00	9.790300e-06	1.034828e-05	-2.013858e-05	1.034828e-05
9.890200000000002e-06	3.351396e+00	9.890200e-06	1.045241e-05	-2.034261e-05	1.045241e-05
9.990100000000003e-06	3.346376e+00	9.990100e-06	1.055653e-05	-2.054663e-05	1.055653e-05
1.009000000000000e-05	3.341380e+00	1.009000e-05	1.066063e-05	-2.075063e-05	1.066063e-05
1.018990000000000e-05	3.336406e+00	1.018990e-05	1.076472e-05	-2.095463e-05	1.076472e-05
1.028980000000000e-05	3.331454e+00	1.028980e-05	1.086880e-05	-2.115860e-05	1.086880e-05
1.038970000000000e-05	3.326524e+00	1.038970e-05	1.097286e-05	-2.136256e-05	1.097286e-05
1.048960000000001e-05	3.321615e+00	1.048960e-05	1.107691e-05	-2.156651e-05	1.107691e-05
1.058950000000001e-05	3.316728e+00	1.058950e-05	1.118094e-05	-2.177044e-05	1.118094e-05
1.068940000000001e-05	3.311861e+00	1.068940e-05	1.128496e-05	-2.197436e-05	1.128496e-05
1.078930000000001e-05	3.307015e+00	1.078930e-05	1.138897e-05	-2.217827e-05	1.138897e-05
1.088920000000001e-05	3.302189e+00	1.088920e-05	1.149296e-05	-2.238216e-05	1.149296e-05
1.098910000000001e-05	3.297384e+00	1.098910e-05	1.159694e-05	-2.258604e-05	1.159694e-05
1.108900000000001e-05	3.292597e+00	1.108900e-05	1.170090e-05	-2.278990e-05	1.170090e-05
1.118890000000001e-05	3.287831e+00	1.118890e-05	1.180485e-05	-2.299375e-05	1.180485e-05
1.128880000000001e-05	3.283083e+00	1.128880e-05	1.190879e-05	-2.319759e-05	1.190879e-05
1.138870000000001e-05	3.278354e+00	1.138870e-05	1.201272e-05	-2.340142e-05	1.201272e-05
1.148860000000001e-05	3.273644e+00	1.148860e-05	1.211663e-05	-2.360523e-05	1.211663e-05
1.158850000000001e-05	3.268952e+00	1.158850e-05	1.222053e-05	-2.380903e-05	1.222053e-05
1.168840000000001e-05	3.264279e+00	1.168840e-05	1.232441e-05	-2.401281e-05	1.232441e-05
1.178830000000001e-05	3.259623e+00	1.178830e-05	1.242829e-05	-2.421659e-05	1.242829e-05
1.188820000000001e-05	3.254985e+00	1.188820e-05	1.253215e-05	-2.442035e-05	1.253215e-05
1.198810000000001e-05	3.250364e+00	1.198810e-05	1.263599e-05	-2.462409e-05	1.263599e-05
1.208800000000001e-05	3.245761e+00	1.208800e-05	1.273983e-05	-2.482783e-05	1.273983e-05
1.218790000000001e-05	3.241174e+00	1.218790e-05	1.284365e-05	-2.503155e-05	1.284365e-05
1.228780000000001e-05	3.236605e+00	1.228780e-05	1.294746e-05	-2.523526e-05	1.294746e-05
1.238770000000002e-05	3.232052e+00	1.238770e-05	1.305126e-05	-2.543896e-05	1.305126e-05
1.248760000000002e-05	3.227515e+00	1.248760e-05	1.315504e-05	-2.564264e-05	1.315504e-05
1.258750000000002e-05	3.222994e+00	1.258750e-05	1.325881e-05	-2.584632e-05	1.325881e-05
1.268740000000002e-05	3.218489e+00	1.268740e-05	1.336257e-05	-2.604997e-05	1.336257e-05
1.278730000000002e-05	3.214000e+00	1.278730e-05	1.346632e-05	-2.625362e-05	1.346632e-05
1.288720000000002e-05	3.209527e+00	1.288720e-05	1.357006e-05	-2.645726e-05	1.357006e-05
1.298710000000002e-05	3.205069e+00	1.298710e-05	1.367378e-05	-2.666088e-05	1.367378e-05
1.308700000000002e-05	3.200626e+00	1.308700e-05	1.377750e-05	-2.686449e-05	1.377750e-05
1.318690000000002e-05	3.196198e+00	1.318690e-05	1.388119e-05	-2.706810e-05	1.388119e-05
1.328680000000002e-05	3.191785e+00	1.328680e-05	1.398488e-05	-2.727168e-05	1.398488e-05
1.338670000000002e-05	3.187387e+00	1.338670e-05	1.408856e-05	-2.747526e-05	1.408856e-05
1.348660000000002e-05	3.183003e+00	1.348660e-05	1.419222e-05	-2.767883e-05	1.419222e-05
1.358650000000002e-05	3.178634e+00	1.358650e-05	1.429588e-05	-2.788238e-05	1.429588e-05
1.368640000000002e-05	3.174278e+00	1.368640e-05	1.439952e-05	-2.808592e-05	1.439952e-05
1.378630000000002e-05	3.169937e+00	1.378630e-05	1.450315e-05	-2.828945e-05	1.450315e-05
1.388620000000002e-05	3.165610e+00	1.388620e-05	1.460677e-05	-2.849297e-05	1.460677e-05
1.398610000000002e-05	3.161296e+00	1.398610e-05	1.471038e-05	-2.869648e-05	1.471038e-05
1.408600000000002e-05	3.156996e+00	1.408600e-05	1.481397e-05	-2.889997e-05	1.481397e-05
1.418590000000002e-05	3.152709e+00	1.418590e-05	1.491756e-05	-2.910346e-05	1.491756e-05
1.428580000000003e-05	3.148435e+00	1.428580e-05	1.502113e-05	-2.930693e-05	1.502113e-05
1.438570000000003e-05	3.144175e+00	1.438570e-05	1.512469e-05	-2.951039e-05	1.512469e-05
1.448560000000003e-05	3.139927e+00	1.448560e-05	1.522824e-05	-2.971384e-05	1.522824e-05
1.458550000000003e-05	3.135693e+00	1.458550e-05	1.533179e-05	-2.991728e-05	1.533179e-05
1.468540000000003e-05	3.131471e+00	1.468540e-05	1.543531e-05	-3.012071e-05	1.543531e-05
1.478530000000003e-05	3.127261e+00	1.478530e-05	1.553883e-05	-3.032413e-05	1.553883e-05
1.488520000000003e-05	3.123065e+00	1.488520e-05	1.564234e-05	-3.052754e-05	1.564234e-05
1.498510000000003e-05	3.118880e+00	1.498510e-05	1.574584e-05	-3.073093e-05	1.574584e-05
1.508500000000003e-05	3.114707e+00	1.508500e-05	1.584932e-05	-3.093432e-05	1.584932e-05
1.518490000000003e-05	3.110547e+00	1.518490e-05	1.595280e-05	-3.113770e-05	1.595280e-05
1.528480000000003e-05	3.106398e+00	1.528480e-05	1.605626e-05	-3.134106e-05	1.605626e-05
1.538470000000003e-05	3.102262e+00	1.538470e-05	1.615971e-05	-3.154441e-05	1.615971e-05
1.548460000000003e-05	3.098136e+00	1.548460e-05	1.626316e-05	-3.174776e-05	1.626316e-05
1.558450000000003e-05	3.094023e+00	1.558450e-05	1.636659e-05	-3.195109e-05	1.636659e-05
1.568440000000003e-05	3.089921e+00	1.568440e-05	1.647001e-05	-3.215441e-05	1.647001e-05
1.578430000000002e-05	3.085830e+00	1.578430e-05	1.657342e-05	-3.235772e-05	1.657342e-05
1.588420000000002e-05	3.081751e+00	1.588420e-05	1.667682e-05	-3.256102e-05	1.667682e-05
1.598410000000002e-05	3.077682e+00	1.598410e-05	1.678021e-05	-3.276431e-05	1.678021e-05
1.608400000000002e-05	3.073625e+00	1.608400e-05	1.688359e-05	-3.296759e-05	1.688359e-05
1.618390000000002e-05	3.069579e+00	1.618390e-05	1.698696e-05	-3.317086e-05	1.698696e-05
1.628380000000002e-05	3.065543e+00	1.628380e-05	1.709032e-05	-3.337412e-05	1.709032e-05
1.638370000000002e-05	3.061518e+00	1.638370e-05	1.719367e-05	-3.357737e-05	1.719367e-05
1.648360000000002e-05	3.057504e+00	1.648360e-05	1.729701e-05	-3.378061e-05	1.729701e-05
1.658350000000001e-05	3.053500e+00	1.658350e-05	1.740034e-05	-3.398384e-05	1.740034e-05
1.668340000000001e-05	3.049507e+00	1.668340e-05	1.750366e-05	-3.418706e-05	1.750366e-05
1.678330000000001e-05	3.045524e+00	1.678330e-05	1.760697e-05	-3.439026e-05	1.760697e-05
1.688320000000001e-05	3.041551e+00	1.688320e-05	1.771026e-05	-3.459346e-05	1.771026e-05
1.698310000000001e-05	3.037588e+00	1.698310e-05	1.781355e-05	-3.479665e-05	1.781355e-05
1.708300000000001e-05	3.033635e+00	1.708300e-05	1.791683e-05	-3.499983e-05	1.791683e-05
1.718290000000001e-05	3.029693e+00	1.718290e-05	1.802010e-05	-3.520300e-05	1.802010e-05
1.728280000000001e-05	3.025760e+00	1.728280e-05	1.812336e-05	-3.540616e-05	1.812336e-05
1.738270000000001e-05	3.021837e+00	1.738270e-05	1.822661e-05	-3.560931e-05	1.822661e-05
1.748260000000000e-05	3.017923e+00	1.748260e-05	1.832985e-05	-3.581245e-05	1.832985e-05
1.758250000000000e-05	3.014019e+00	1.758250e-05	1.843308e-05	-3.601558e-05	1.843308e-05
1.768240000000000e-05	3.010125e+00	1.768240e-05	1.853630e-05	-3.621869e-05	1.853630e-05
1.778230000000000e-05	3.006240e+00	1.778230e-05	1.863951e-05	-3.642181e-05	1.863951e-05
1.788220000000000e-05	3.002364e+00	1.788220e-05	1.874271e-05	-3.662491e-05	1.874271e-05
1.798210000000000e-05	2.998497e+00	1.798210e-05	1.884590e-05	-3.682800e-05	1.884590e-05
1.808200000000000e-05	2.994640e+00	1.808200e-05	1.894908e-05	-3.703108e-05	1.894908e-05
1.818190000000000e-05	2.990792e+00	1.818190e-05	1.905225e-05	-3.723415e-05	1.905225e-05
1.828179999999999e-05	2.986953e+00	1.828180e-05	1.915541e-05	-3.743721e-05	1.915541e-05
1.838169999999999e-05	2.983123e+00	1.838170e-05	1.925856e-05	-3.764026e-05	1.925856e-05
1.848159999999999e-05	2.979301e+00	1.848160e-05	1.936171e-05	-3.784331e-05	1.936171e-05
1.858149999999999e-05	2.975489e+00	1.858150e-05	1.946484e-05	-3.804634e-05	1.946484e-05
1.868139999999999e-05	2.971685e+00	1.868140e-05	1.956796e-05	-3.824936e-05	1.956796e-05
1.878129999999999e-05	2.967890e+00	1.878130e-05	1.967108e-05	-3.845238e-05	1.967108e-05
1.888119999999999e-05	2.964103e+00	1.888120e-05	1.977418e-05	-3.865538e-05	1.977418e-05
1.898109999999999e-05	2.960325e+00	1.898110e-05	1.987728e-05	-3.885838e-05	1.987728e-05
1.908099999999999e-05	2.956556e+00	1.908100e-05	1.998037e-05	-3.906137e-05	1.998037e-05
1.918089999999998e-05	2.952795e+00	1.918090e-05	2.008344e-05	-3.926435e-05	2.008344e-05
1.928079999999998e-05	2.949042e+00	1.928080e-05	2.018651e-05	-3.946731e-05	2.018651e-05
1.938069999999998e-05	2.945297e+00	1.938070e-05	2.028957e-05	-3.967027e-05	2.028957e-05
1.948059999999998e-05	2.941561e+00	1.948060e-05	2.039262e-05	-3.987322e-05	2.039262e-05
1.958049999999998e-05	2.937832e+00	1.958050e-05	2.049566e-05	-4.007616e-05	2.049566e-05
1.968039999999998e-05	2.934112e+00	1.968040e-05	2.059869e-05	-4.027909e-05	2.059869e-05
1.978029999999998e-05	2.930399e+00	1.978030e-05	2.070172e-05	-4.048202e-05	2.070172e-05
1.988019999999998e-05	2.926695e+00	1.988020e-05	2.080473e-05	-4.068493e-05	2.080473e-05
1.998009999999997e-05	2.922998e+00	1.998010e-05	2.090773e-05	-4.088783e-05	2.090773e-05
2.007999999999997e-05	2.919309e+00	2.008000e-05	2.101073e-05	-4.109073e-05	2.101073e-05
2.017989999999997e-05	2.915628e+00	2.017990e-05	2.111372e-05	-4.129362e-05	2.111372e-05
2.027979999999997e-05	2.911955e+00	2.027980e-05	2.121669e-05	-4.149649e-05	2.121669e-05
2.037969999999997e-05	2.908289e+00	2.037970e-05	2.131966e-05	-4.169936e-05	2.131966e-05
2.047959999999997e-05	2.904631e+00	2.047960e-05	2.142262e-05	-4.190222e-05	2.142262e-05
2.057949999999997e-05	2.900980e+00	2.057950e-05	2.152557e-05	-4.210507e-05	2.152557e-05
2.067939999999997e-05	2.897336e+00	2.067940e-05	2.162851e-05	-4.230791e-05	2.162851e-05
2.077929999999997e-05	2.893701e+00	2.077930e-05	2.173145e-05	-4.251075e-05	2.173145e-05
2.087919999999996e-05	2.890072e+00	2.087920e-05	2.183437e-05	-4.271357e-05	2.183437e-05
2.097909999999996e-05	2.886451e+00	2.097910e-05	2.193729e-05	-4.291639e-05	2.193729e-05
2.107899999999996e-05	2.882837e+00	2.107900e-05	2.204019e-05	-4.311919e-05	2.204019e-05
2.117889999999996e-05	2.879230e+00	2.117890e-05	2.214309e-05	-4.332199e-05	2.214309e-05
2.127879999999996e-05	2.875630e+00	2.127880e-05	2.224598e-05	-4.352478e-05	2.224598e-05
2.137869999999996e-05	2.872037e+00	2.137870e-05	2.234886e-05	-4.372756e-05	2.234886e-05
2.147859999999996e-05	2.868452e+00	2.147860e-05	2.245173e-05	-4.393033e-05	2.245173e-05
2.157849999999996e-05	2.864873e+00	2.157850e-05	2.255460e-05	-4.413310e-05	2.255460e-05
2.167839999999995e-05	2.861301e+00	2.167840e-05	2.265745e-05	-4.433585e-05	2.265745e-05
2.177829999999995e-05	2.857736e+00	2.177830e-05	2.276030e-05	-4.453860e-05	2.276030e-05
2.187819999999995e-05	2.854178e+00	2.187820e-05	2.286314e-05	-4.474134e-05	2.286314e-05
2.197809999999995e-05	2.850626e+00	2.197810e-05	2.296597e-05	-4.494407e-05	2.296597e-05
2.207799999999995e-05	2.847082e+00	2.207800e-05	2.306879e-05	-4.514679e-05	2.306879e-05
2.217789999999995e-05	2.843544e+00	2.217790e-05	2.317160e-05	-4.534950e-05	2.317160e-05
2.227779999999995e-05	2.840013e+00	2.227780e-05	2.327440e-05	-4.555220e-05	2.327440e-05
2.237769999999995e-05	2.836488e+00	2.237770e-05	2.337720e-05	-4.575490e-05	2.337720e-05
