vdm	Ix(M1:DRAIN)	Ix(M2:SOURCE)
-2.000000000000000e-01	-7.690801e-13	-1.525109e-12
-1.996000000000000e-01	-7.691266e-13	-1.525019e-12
-1.992000000000000e-01	-7.691740e-13	-1.524978e-12
-1.988000000000000e-01	-7.692218e-13	-1.524937e-12
-1.984000000000000e-01	-7.692701e-13	-1.524895e-12
-1.980000000000000e-01	-7.693188e-13	-1.524853e-12
-1.975999999999999e-01	-7.693680e-13	-1.524811e-12
-1.971999999999999e-01	-7.694176e-13	-1.524768e-12
-1.967999999999999e-01	-7.694677e-13	-1.524724e-12
-1.963999999999999e-01	-7.695183e-13	-1.524681e-12
-1.959999999999999e-01	-7.695693e-13	-1.524636e-12
-1.955999999999999e-01	-7.696209e-13	-1.524592e-12
-1.951999999999999e-01	-7.696728e-13	-1.524547e-12
-1.947999999999999e-01	-7.697253e-13	-1.524501e-12
-1.943999999999999e-01	-7.697783e-13	-1.524456e-12
-1.939999999999998e-01	-7.698318e-13	-1.524409e-12
-1.935999999999998e-01	-7.698858e-13	-1.524363e-12
-1.931999999999998e-01	-7.699403e-13	-1.524316e-12
-1.927999999999998e-01	-7.699953e-13	-1.524268e-12
-1.923999999999998e-01	-7.700508e-13	-1.524220e-12
-1.919999999999998e-01	-7.701069e-13	-1.524172e-12
-1.915999999999998e-01	-7.701634e-13	-1.524123e-12
-1.911999999999998e-01	-7.702205e-13	-1.524073e-12
-1.907999999999997e-01	-7.702782e-13	-1.524023e-12
-1.903999999999997e-01	-7.703363e-13	-1.523973e-12
-1.899999999999997e-01	-7.703951e-13	-1.523922e-12
-1.895999999999997e-01	-7.704543e-13	-1.523871e-12
-1.891999999999997e-01	-7.705142e-13	-1.523819e-12
-1.887999999999997e-01	-7.705746e-13	-1.523767e-12
-1.883999999999997e-01	-7.706356e-13	-1.523714e-12
-1.879999999999997e-01	-7.706971e-13	-1.523661e-12
-1.875999999999997e-01	-7.707593e-13	-1.523607e-12
-1.871999999999996e-01	-7.708220e-13	-1.523553e-12
-1.867999999999996e-01	-7.708853e-13	-1.523498e-12
-1.863999999999996e-01	-7.709492e-13	-1.523443e-12
-1.859999999999996e-01	-7.710137e-13	-1.523387e-12
-1.855999999999996e-01	-7.710789e-13	-1.523331e-12
-1.851999999999996e-01	-7.711446e-13	-1.523274e-12
-1.847999999999996e-01	-7.712110e-13	-1.523217e-12
-1.843999999999996e-01	-7.712780e-13	-1.523159e-12
-1.839999999999996e-01	-7.713456e-13	-1.523100e-12
-1.835999999999995e-01	-7.714139e-13	-1.523041e-12
-1.831999999999995e-01	-7.714828e-13	-1.522982e-12
-1.827999999999995e-01	-7.715524e-13	-1.522922e-12
-1.823999999999995e-01	-7.716226e-13	-1.522861e-12
-1.819999999999995e-01	-7.716935e-13	-1.522799e-12
-1.815999999999995e-01	-7.717650e-13	-1.522738e-12
-1.811999999999995e-01	-7.718373e-13	-1.522675e-12
-1.807999999999995e-01	-7.719103e-13	-1.522612e-12
-1.803999999999994e-01	-7.719839e-13	-1.522549e-12
-1.799999999999994e-01	-7.720582e-13	-1.522484e-12
-1.795999999999994e-01	-7.721332e-13	-1.522419e-12
-1.791999999999994e-01	-7.722090e-13	-1.522354e-12
-1.787999999999994e-01	-7.722854e-13	-1.522288e-12
-1.783999999999994e-01	-7.723626e-13	-1.522221e-12
-1.779999999999994e-01	-7.724405e-13	-1.522154e-12
-1.775999999999994e-01	-7.725192e-13	-1.522086e-12
-1.771999999999994e-01	-7.725986e-13	-1.522017e-12
-1.767999999999993e-01	-7.726788e-13	-1.521948e-12
-1.763999999999993e-01	-7.727597e-13	-1.521878e-12
-1.759999999999993e-01	-7.728414e-13	-1.521807e-12
-1.755999999999993e-01	-7.729239e-13	-1.521736e-12
-1.751999999999993e-01	-7.730072e-13	-1.521664e-12
-1.747999999999993e-01	-7.730912e-13	-1.521591e-12
-1.743999999999993e-01	-7.731761e-13	-1.521518e-12
-1.739999999999993e-01	-7.732618e-13	-1.521444e-12
-1.735999999999993e-01	-7.733483e-13	-1.521369e-12
-1.731999999999992e-01	-7.734356e-13	-1.521294e-12
-1.727999999999992e-01	-7.735237e-13	-1.521217e-12
-1.723999999999992e-01	-7.736127e-13	-1.521140e-12
-1.719999999999992e-01	-7.737026e-13	-1.521063e-12
-1.715999999999992e-01	-7.737932e-13	-1.520984e-12
-1.711999999999992e-01	-7.738848e-13	-1.520905e-12
-1.707999999999992e-01	-7.739773e-13	-1.520825e-12
-1.703999999999992e-01	-7.740706e-13	-1.520744e-12
-1.699999999999992e-01	-7.741648e-13	-1.520663e-12
-1.695999999999991e-01	-7.742599e-13	-1.520581e-12
-1.691999999999991e-01	-7.743559e-13	-1.520498e-12
-1.687999999999991e-01	-7.744529e-13	-1.520414e-12
-1.683999999999991e-01	-7.745508e-13	-1.520330e-12
-1.679999999999991e-01	-7.746496e-13	-1.520244e-12
-1.675999999999991e-01	-7.747494e-13	-1.520158e-12
-1.671999999999991e-01	-7.748501e-13	-1.520071e-12
-1.667999999999991e-01	-7.749517e-13	-1.519983e-12
-1.663999999999990e-01	-7.750544e-13	-1.519894e-12
-1.659999999999990e-01	-7.751580e-13	-1.519805e-12
-1.655999999999990e-01	-7.752627e-13	-1.519714e-12
-1.651999999999990e-01	-7.753683e-13	-1.519623e-12
-1.647999999999990e-01	-7.754749e-13	-1.519531e-12
-1.643999999999990e-01	-7.755826e-13	-1.519438e-12
-1.639999999999990e-01	-7.756913e-13	-1.519344e-12
-1.635999999999990e-01	-7.758010e-13	-1.519249e-12
-1.631999999999990e-01	-7.759118e-13	-1.519154e-12
-1.627999999999989e-01	-7.760237e-13	-1.519057e-12
-1.623999999999989e-01	-7.761366e-13	-1.518959e-12
-1.619999999999989e-01	-7.762506e-13	-1.518861e-12
-1.615999999999989e-01	-7.763657e-13	-1.518761e-12
-1.611999999999989e-01	-7.764819e-13	-1.518661e-12
-1.607999999999989e-01	-7.765992e-13	-1.518559e-12
-1.603999999999989e-01	-7.767177e-13	-1.518457e-12
-1.599999999999989e-01	-7.768373e-13	-1.518354e-12
-1.595999999999989e-01	-7.769580e-13	-1.518250e-12
-1.591999999999988e-01	-7.770800e-13	-1.518144e-12
-1.587999999999988e-01	-7.772030e-13	-1.518038e-12
-1.583999999999988e-01	-7.773273e-13	-1.517930e-12
-1.579999999999988e-01	-7.774527e-13	-1.517822e-12
-1.575999999999988e-01	-7.775793e-13	-1.517713e-12
-1.571999999999988e-01	-7.777072e-13	-1.517602e-12
-1.567999999999988e-01	-7.778363e-13	-1.517491e-12
-1.563999999999988e-01	-7.779667e-13	-1.517378e-12
-1.559999999999988e-01	-7.780983e-13	-1.517264e-12
-1.555999999999987e-01	-7.782312e-13	-1.517150e-12
-1.551999999999987e-01	-7.783653e-13	-1.517034e-12
-1.547999999999987e-01	-7.785007e-13	-1.516917e-12
-1.543999999999987e-01	-7.786375e-13	-1.516799e-12
-1.539999999999987e-01	-7.787755e-13	-1.516679e-12
-1.535999999999987e-01	-7.789149e-13	-1.516559e-12
-1.531999999999987e-01	-7.790556e-13	-1.516437e-12
-1.527999999999987e-01	-7.791977e-13	-1.516315e-12
-1.523999999999986e-01	-7.793411e-13	-1.516191e-12
-1.519999999999986e-01	-7.794860e-13	-1.516066e-12
-1.515999999999986e-01	-7.796322e-13	-1.515940e-12
-1.511999999999986e-01	-7.797798e-13	-1.515812e-12
-1.507999999999986e-01	-7.799289e-13	-1.515683e-12
-1.503999999999986e-01	-7.800793e-13	-1.515554e-12
-1.499999999999986e-01	-7.802312e-13	-1.515422e-12
-1.495999999999986e-01	-7.803847e-13	-1.515290e-12
-1.491999999999986e-01	-7.805395e-13	-1.515156e-12
-1.487999999999985e-01	-7.806959e-13	-1.515021e-12
-1.483999999999985e-01	-7.808538e-13	-1.514885e-12
-1.479999999999985e-01	-7.810132e-13	-1.514747e-12
-1.475999999999985e-01	-7.811741e-13	-1.514608e-12
-1.471999999999985e-01	-7.813366e-13	-1.514468e-12
-1.467999999999985e-01	-7.815006e-13	-1.514326e-12
-1.463999999999985e-01	-7.816662e-13	-1.514183e-12
-1.459999999999985e-01	-7.818335e-13	-1.514039e-12
-1.455999999999985e-01	-7.820023e-13	-1.513893e-12
-1.451999999999984e-01	-7.821727e-13	-1.513746e-12
-1.447999999999984e-01	-7.823448e-13	-1.513597e-12
-1.443999999999984e-01	-7.825186e-13	-1.513447e-12
-1.439999999999984e-01	-7.826940e-13	-1.513296e-12
-1.435999999999984e-01	-7.828712e-13	-1.513143e-12
-1.431999999999984e-01	-7.830500e-13	-1.512989e-12
-1.427999999999984e-01	-7.832305e-13	-1.512833e-12
-1.423999999999984e-01	-7.834128e-13	-1.512676e-12
-1.419999999999983e-01	-7.835969e-13	-1.512517e-12
-1.415999999999983e-01	-7.837827e-13	-1.512356e-12
-1.411999999999983e-01	-7.839703e-13	-1.512195e-12
-1.407999999999983e-01	-7.841597e-13	-1.512031e-12
-1.403999999999983e-01	-7.843509e-13	-1.511866e-12
-1.399999999999983e-01	-7.845440e-13	-1.511699e-12
-1.395999999999983e-01	-7.847390e-13	-1.511531e-12
-1.391999999999983e-01	-7.849358e-13	-1.511361e-12
-1.387999999999983e-01	-7.851345e-13	-1.511190e-12
-1.383999999999982e-01	-7.853351e-13	-1.511017e-12
-1.379999999999982e-01	-7.855377e-13	-1.510842e-12
-1.375999999999982e-01	-7.857422e-13	-1.510666e-12
-1.371999999999982e-01	-7.859487e-13	-1.510487e-12
-1.367999999999982e-01	-7.861571e-13	-1.510307e-12
-1.363999999999982e-01	-7.863676e-13	-1.510126e-12
-1.359999999999982e-01	-7.865801e-13	-1.509943e-12
-1.355999999999982e-01	-7.867946e-13	-1.509758e-12
-1.351999999999982e-01	-7.870112e-13	-1.509571e-12
-1.347999999999981e-01	-7.872299e-13	-1.509382e-12
-1.343999999999981e-01	-7.874507e-13	-1.509192e-12
-1.339999999999981e-01	-7.876736e-13	-1.509000e-12
-1.335999999999981e-01	-7.878987e-13	-1.508805e-12
-1.331999999999981e-01	-7.881259e-13	-1.508609e-12
-1.327999999999981e-01	-7.883553e-13	-1.508411e-12
-1.323999999999981e-01	-7.885869e-13	-1.508212e-12
-1.319999999999981e-01	-7.888208e-13	-1.508010e-12
-1.315999999999981e-01	-7.890569e-13	-1.507806e-12
-1.311999999999980e-01	-7.892952e-13	-1.507601e-12
-1.307999999999980e-01	-7.895358e-13	-1.507394e-12
-1.303999999999980e-01	-7.897788e-13	-1.507184e-12
-1.299999999999980e-01	-7.900241e-13	-1.506973e-12
-1.295999999999980e-01	-7.902717e-13	-1.506759e-12
-1.291999999999980e-01	-7.905217e-13	-1.506543e-12
-1.287999999999980e-01	-7.907741e-13	-1.506326e-12
-1.283999999999980e-01	-7.910290e-13	-1.506106e-12
-1.279999999999979e-01	-7.912863e-13	-1.505885e-12
-1.275999999999979e-01	-7.915460e-13	-1.505661e-12
-1.271999999999979e-01	-7.918082e-13	-1.505434e-12
-1.267999999999979e-01	-7.920730e-13	-1.505207e-12
-1.263999999999979e-01	-7.923403e-13	-1.504976e-12
-1.259999999999979e-01	-7.926101e-13	-1.504743e-12
-1.255999999999979e-01	-7.928825e-13	-1.504509e-12
-1.251999999999979e-01	-7.931575e-13	-1.504272e-12
-1.247999999999979e-01	-7.934352e-13	-1.504032e-12
-1.243999999999979e-01	-7.937155e-13	-1.503791e-12
-1.239999999999979e-01	-7.939985e-13	-1.503547e-12
-1.235999999999979e-01	-7.942842e-13	-1.503301e-12
-1.231999999999979e-01	-7.945727e-13	-1.503052e-12
-1.227999999999979e-01	-7.948639e-13	-1.502802e-12
-1.223999999999979e-01	-7.951579e-13	-1.502548e-12
-1.219999999999979e-01	-7.954546e-13	-1.502293e-12
-1.215999999999979e-01	-7.957543e-13	-1.502034e-12
-1.211999999999979e-01	-7.960567e-13	-1.501774e-12
-1.207999999999979e-01	-7.963621e-13	-1.501511e-12
-1.203999999999979e-01	-7.966704e-13	-1.501245e-12
-1.199999999999979e-01	-7.969816e-13	-1.500977e-12
-1.195999999999979e-01	-7.972958e-13	-1.500707e-12
-1.191999999999979e-01	-7.976130e-13	-1.500434e-12
-1.187999999999979e-01	-7.979332e-13	-1.500158e-12
-1.183999999999979e-01	-7.982564e-13	-1.499880e-12
-1.179999999999979e-01	-7.985827e-13	-1.499599e-12
-1.175999999999979e-01	-7.989121e-13	-1.499315e-12
-1.171999999999979e-01	-7.992447e-13	-1.499029e-12
-1.167999999999979e-01	-7.995804e-13	-1.498740e-12
-1.163999999999979e-01	-7.999193e-13	-1.498448e-12
-1.159999999999979e-01	-8.002614e-13	-1.498153e-12
-1.155999999999979e-01	-8.006068e-13	-1.497856e-12
-1.151999999999979e-01	-8.009554e-13	-1.497556e-12
-1.147999999999979e-01	-8.013073e-13	-1.497253e-12
-1.143999999999979e-01	-8.016626e-13	-1.496947e-12
-1.139999999999979e-01	-8.020213e-13	-1.496639e-12
-1.135999999999979e-01	-8.023833e-13	-1.496327e-12
-1.131999999999979e-01	-8.027488e-13	-1.496013e-12
-1.127999999999979e-01	-8.031177e-13	-1.495695e-12
-1.123999999999979e-01	-8.034901e-13	-1.495375e-12
-1.119999999999979e-01	-8.038660e-13	-1.495052e-12
-1.115999999999980e-01	-8.042455e-13	-1.494725e-12
-1.111999999999980e-01	-8.046285e-13	-1.494396e-12
-1.107999999999980e-01	-8.050152e-13	-1.494063e-12
-1.103999999999980e-01	-8.054054e-13	-1.493728e-12
-1.099999999999980e-01	-8.057994e-13	-1.493389e-12
-1.095999999999980e-01	-8.061971e-13	-1.493047e-12
-1.091999999999980e-01	-8.065985e-13	-1.492702e-12
-1.087999999999980e-01	-8.070038e-13	-1.492353e-12
-1.083999999999980e-01	-8.074127e-13	-1.492002e-12
-1.079999999999980e-01	-8.078256e-13	-1.491647e-12
-1.075999999999980e-01	-8.082423e-13	-1.491289e-12
-1.071999999999980e-01	-8.086629e-13	-1.490927e-12
-1.067999999999980e-01	-8.090875e-13	-1.490562e-12
-1.063999999999980e-01	-8.095161e-13	-1.490194e-12
-1.059999999999980e-01	-8.099486e-13	-1.489822e-12
-1.055999999999980e-01	-8.103852e-13	-1.489447e-12
-1.051999999999980e-01	-8.108259e-13	-1.489068e-12
-1.047999999999980e-01	-8.112707e-13	-1.488686e-12
-1.043999999999980e-01	-8.117196e-13	-1.488300e-12
-1.039999999999980e-01	-8.121728e-13	-1.487911e-12
-1.035999999999980e-01	-8.126301e-13	-1.487518e-12
-1.031999999999980e-01	-8.130917e-13	-1.487122e-12
-1.027999999999980e-01	-8.135576e-13	-1.486721e-12
-1.023999999999980e-01	-8.140278e-13	-1.486318e-12
-1.019999999999980e-01	-8.145024e-13	-1.485910e-12
-1.015999999999980e-01	-8.149814e-13	-1.485499e-12
-1.011999999999980e-01	-8.154648e-13	-1.485084e-12
-1.007999999999980e-01	-8.159527e-13	-1.484665e-12
-1.003999999999980e-01	-8.164452e-13	-1.484242e-12
-9.999999999999802e-02	-8.169422e-13	-1.483815e-12
-9.959999999999802e-02	-8.174437e-13	-1.483385e-12
-9.919999999999803e-02	-8.179499e-13	-1.482950e-12
-9.879999999999803e-02	-8.184608e-13	-1.482512e-12
-9.839999999999803e-02	-8.189763e-13	-1.482069e-12
-9.799999999999803e-02	-8.194967e-13	-1.481623e-12
-9.759999999999804e-02	-8.200218e-13	-1.481172e-12
-9.719999999999804e-02	-8.205517e-13	-1.480718e-12
-9.679999999999804e-02	-8.210865e-13	-1.480259e-12
-9.639999999999804e-02	-8.216262e-13	-1.479796e-12
-9.599999999999805e-02	-8.221708e-13	-1.479329e-12
-9.559999999999805e-02	-8.227204e-13	-1.478858e-12
-9.519999999999805e-02	-8.232751e-13	-1.478382e-12
-9.479999999999805e-02	-8.238348e-13	-1.477902e-12
-9.439999999999805e-02	-8.243996e-13	-1.477418e-12
-9.399999999999806e-02	-8.249695e-13	-1.476929e-12
-9.359999999999806e-02	-8.255447e-13	-1.476436e-12
-9.319999999999806e-02	-8.261250e-13	-1.475939e-12
-9.279999999999806e-02	-8.267107e-13	-1.475437e-12
-9.239999999999807e-02	-8.273017e-13	-1.474931e-12
-9.199999999999807e-02	-8.278979e-13	-1.474420e-12
-9.159999999999807e-02	-8.284996e-13	-1.473904e-12
-9.119999999999807e-02	-8.291068e-13	-1.473384e-12
-9.079999999999808e-02	-8.297194e-13	-1.472859e-12
-9.039999999999808e-02	-8.303375e-13	-1.472330e-12
-8.999999999999808e-02	-8.309612e-13	-1.471796e-12
-8.959999999999808e-02	-8.315905e-13	-1.471257e-12
-8.919999999999809e-02	-8.322255e-13	-1.470714e-12
-8.879999999999809e-02	-8.328662e-13	-1.470165e-12
-8.839999999999809e-02	-8.335126e-13	-1.469612e-12
-8.799999999999809e-02	-8.341647e-13	-1.469054e-12
-8.759999999999810e-02	-8.348228e-13	-1.468490e-12
-8.719999999999810e-02	-8.354866e-13	-1.467922e-12
-8.679999999999810e-02	-8.361564e-13	-1.467349e-12
-8.639999999999810e-02	-8.368322e-13	-1.466771e-12
-8.599999999999811e-02	-8.375139e-13	-1.466188e-12
-8.559999999999811e-02	-8.382017e-13	-1.465600e-12
-8.519999999999811e-02	-8.388956e-13	-1.465007e-12
-8.479999999999811e-02	-8.395957e-13	-1.464408e-12
-8.439999999999812e-02	-8.403019e-13	-1.463804e-12
-8.399999999999812e-02	-8.410144e-13	-1.463195e-12
-8.359999999999812e-02	-8.417331e-13	-1.462581e-12
-8.319999999999812e-02	-8.424581e-13	-1.461961e-12
-8.279999999999813e-02	-8.431895e-13	-1.461336e-12
-8.239999999999813e-02	-8.439274e-13	-1.460706e-12
-8.199999999999813e-02	-8.446717e-13	-1.460070e-12
-8.159999999999813e-02	-8.454224e-13	-1.459428e-12
-8.119999999999813e-02	-8.461797e-13	-1.458782e-12
-8.079999999999814e-02	-8.469437e-13	-1.458129e-12
-8.039999999999814e-02	-8.477142e-13	-1.457471e-12
-7.999999999999814e-02	-8.484915e-13	-1.456808e-12
-7.959999999999814e-02	-8.492755e-13	-1.456138e-12
-7.919999999999815e-02	-8.500662e-13	-1.455463e-12
-7.879999999999815e-02	-8.508638e-13	-1.454783e-12
-7.839999999999815e-02	-8.516683e-13	-1.454097e-12
-7.799999999999815e-02	-8.524797e-13	-1.453404e-12
-7.759999999999816e-02	-8.532981e-13	-1.452706e-12
-7.719999999999816e-02	-8.541235e-13	-1.452002e-12
-7.679999999999816e-02	-8.549559e-13	-1.451292e-12
-7.639999999999816e-02	-8.557954e-13	-1.450577e-12
-7.599999999999817e-02	-8.566421e-13	-1.449855e-12
-7.559999999999817e-02	-8.574960e-13	-1.449127e-12
-7.519999999999817e-02	-8.583571e-13	-1.448393e-12
-7.479999999999817e-02	-8.592256e-13	-1.447653e-12
-7.439999999999818e-02	-8.601014e-13	-1.446907e-12
-7.399999999999818e-02	-8.609845e-13	-1.446155e-12
-7.359999999999818e-02	-8.618752e-13	-1.445396e-12
-7.319999999999818e-02	-8.627732e-13	-1.444632e-12
-7.279999999999819e-02	-8.636789e-13	-1.443860e-12
-7.239999999999819e-02	-8.645920e-13	-1.443083e-12
-7.199999999999819e-02	-8.655129e-13	-1.442300e-12
-7.159999999999819e-02	-8.664414e-13	-1.441509e-12
-7.119999999999820e-02	-8.673776e-13	-1.440713e-12
-7.079999999999820e-02	-8.683216e-13	-1.439910e-12
-7.039999999999820e-02	-8.692733e-13	-1.439100e-12
-6.999999999999820e-02	-8.702330e-13	-1.438284e-12
-6.959999999999820e-02	-8.712006e-13	-1.437462e-12
-6.919999999999821e-02	-8.721761e-13	-1.436633e-12
-6.879999999999821e-02	-8.731595e-13	-1.435797e-12
-6.839999999999821e-02	-8.741511e-13	-1.434954e-12
-6.799999999999821e-02	-8.751507e-13	-1.434105e-12
-6.759999999999822e-02	-8.761585e-13	-1.433249e-12
-6.719999999999822e-02	-8.771744e-13	-1.432386e-12
-6.679999999999822e-02	-8.781986e-13	-1.431517e-12
-6.639999999999822e-02	-8.792310e-13	-1.430640e-12
-6.599999999999823e-02	-8.802718e-13	-1.429757e-12
-6.559999999999823e-02	-8.813209e-13	-1.428867e-12
-6.519999999999823e-02	-8.823784e-13	-1.427970e-12
-6.479999999999823e-02	-8.834444e-13	-1.427065e-12
-6.439999999999824e-02	-8.845189e-13	-1.426154e-12
-6.399999999999824e-02	-8.856019e-13	-1.425236e-12
-6.359999999999824e-02	-8.866934e-13	-1.424311e-12
-6.319999999999824e-02	-8.877937e-13	-1.423378e-12
-6.279999999999825e-02	-8.889026e-13	-1.422439e-12
-6.239999999999825e-02	-8.900202e-13	-1.421492e-12
-6.199999999999825e-02	-8.911465e-13	-1.420538e-12
-6.159999999999825e-02	-8.922817e-13	-1.419577e-12
-6.119999999999826e-02	-8.934257e-13	-1.418608e-12
-6.079999999999826e-02	-8.945786e-13	-1.417633e-12
-6.039999999999826e-02	-8.957405e-13	-1.416650e-12
-5.999999999999826e-02	-8.969112e-13	-1.415659e-12
-5.959999999999827e-02	-8.980910e-13	-1.414661e-12
-5.919999999999827e-02	-8.992799e-13	-1.413656e-12
-5.879999999999827e-02	-9.004778e-13	-1.412643e-12
-5.839999999999827e-02	-9.016849e-13	-1.411623e-12
-5.799999999999828e-02	-9.029011e-13	-1.410595e-12
-5.759999999999828e-02	-9.041266e-13	-1.409560e-12
-5.719999999999828e-02	-9.053613e-13	-1.408518e-12
-5.679999999999828e-02	-9.066053e-13	-1.407467e-12
-5.639999999999828e-02	-9.078586e-13	-1.406409e-12
-5.599999999999829e-02	-9.091212e-13	-1.405344e-12
-5.559999999999829e-02	-9.103934e-13	-1.404270e-12
-5.519999999999829e-02	-9.116748e-13	-1.403190e-12
-5.479999999999829e-02	-9.129659e-13	-1.402101e-12
-5.439999999999830e-02	-9.142664e-13	-1.401005e-12
-5.399999999999830e-02	-9.155764e-13	-1.399901e-12
-5.359999999999830e-02	-9.168960e-13	-1.398789e-12
-5.319999999999830e-02	-9.182252e-13	-1.397669e-12
-5.279999999999831e-02	-9.195641e-13	-1.396542e-12
-5.239999999999831e-02	-9.209128e-13	-1.395406e-12
-5.199999999999831e-02	-9.222710e-13	-1.394263e-12
-5.159999999999831e-02	-9.236391e-13	-1.393113e-12
-5.119999999999832e-02	-9.250168e-13	-1.391953e-12
-5.079999999999832e-02	-9.264045e-13	-1.390787e-12
-5.039999999999832e-02	-9.278019e-13	-1.389612e-12
-4.999999999999832e-02	-9.292092e-13	-1.388429e-12
-4.959999999999833e-02	-9.306263e-13	-1.387239e-12
-4.919999999999833e-02	-9.320535e-13	-1.386040e-12
-4.879999999999833e-02	-9.334906e-13	-1.384834e-12
-4.839999999999833e-02	-9.349377e-13	-1.383619e-12
-4.799999999999834e-02	-9.363947e-13	-1.382396e-12
-4.759999999999834e-02	-9.378618e-13	-1.381166e-12
-4.719999999999834e-02	-9.393389e-13	-1.379927e-12
-4.679999999999834e-02	-9.408261e-13	-1.378681e-12
